date Wed May 27 06:45:31.798 AM 2026
base hex  timestamps absolute
internal events logged
Begin Triggerblock Wed May 27 06:45:31.795 AM 2026
 0.000000 Start of measurement
 0.000000 2  4E8             Rx   d 8 00 00 82 00 00 00 7E 00
 0.001343 2  763             Rx   d 1 05
 0.002942 2  3E0             Rx   d 8 00 00 00 00 00 00 13 C0
 0.003083 2  76F             Rx   d 1 05
 0.005558 2  4E5             Rx   d 8 00 FF 00 00 00 00 00 00
 0.005644 2  772             Rx   d 1 05
 0.005803 2  75B             Rx   d 1 05
 0.006059 2  1E4             Rx   d 8 00 00 00 00 00 00 00 00
 0.006996 2  4E0             Rx   d 8 00 00 82 00 00 00 7E 00
 0.007092 2  75F             Rx   d 1 05
 0.007713 2  74E             Rx   d 1 05
 0.007949 2  1E8             Rx   d 8 00 00 00 00 00 00 00 00
 0.008876 2  767             Rx   d 1 05
 0.009204 2  76A             Rx   d 1 05
 0.009791 2  74A             Rx   d 1 05
 0.010032 2  3E4             Rx   d 8 00 00 00 00 00 00 13 C0
 0.010782 2  75E             Rx   d 1 05
 0.011337 2  4E1             Rx   d 8 00 00 00 00 00 00 FF FF
 0.011880 2  3E8             Rx   d 8 00 00 00 00 00 00 13 C0
 0.012868 2  756             Rx   d 1 05
 0.013107 2  4E9             Rx   d 8 00 00 00 00 00 00 FF FF
 0.013757 2  76E             Rx   d 1 05
 0.014028 2  4E4             Rx   d 8 00 00 82 00 00 00 7E 00
 0.014553 2  752             Rx   d 1 05
 0.014975 2  1E0             Rx   d 8 00 00 00 00 00 00 00 00
 0.015932 2  4E8             Rx   d 8 00 00 82 00 00 00 7E 00
 0.017856 2  762             Rx   d 1 05
 0.018914 2  3E0             Rx   d 8 00 00 00 00 00 00 03 C0
 0.019735 2  766             Rx   d 1 05
 0.019957 2  75A             Rx   d 1 05
 0.020256 2  80              Rx   d 0 
 0.020482 2  208             Rx   d 6 5A 00 00 00 80 80
 0.020684 2  28A             Rx   d 6 29 FD 03 00 00 00
 0.020799 2  701             Rx   d 1 05
 0.021046 2  1D6             Rx   d 8 06 00 00 81 00 02 01 00
 0.021295 2  1EA             Rx   d 8 00 00 00 E0 00 00 00 00
 0.021616 2  4E5             Rx   d 8 00 FF 00 00 00 00 00 00
 0.021794 2  1F2             Rx   d 8 00 00 00 60 00 00 00 00
 0.022096 2  1CA             Rx   d 8 00 00 00 01 00 02 01 00
 0.022275 2  1E2             Rx   d 8 00 00 00 01 00 02 01 00
 0.022520 2  1EE             Rx   d 8 00 00 00 E0 00 00 00 00
 0.022773 2  1D2             Rx   d 8 00 00 00 81 00 02 01 00
 0.023016 2  1DE             Rx   d 8 00 00 00 81 00 02 01 00
 0.023249 2  2CA             Rx   d 8 00 00 55 29 63 00 2A 04
 0.023505 2  1F6             Rx   d 8 00 00 00 60 00 00 00 00
 0.023741 2  2E2             Rx   d 8 00 00 4F 25 63 00 2B 04
 0.023985 2  1CE             Rx   d 8 00 00 00 81 00 02 01 00
 0.024253 2  1DA             Rx   d 8 00 00 00 81 00 01 01 00
 0.024486 2  1E4             Rx   d 8 00 00 00 00 00 00 00 00
 0.024719 2  1E6             Rx   d 8 00 00 00 01 00 02 01 00
 0.024953 2  2E6             Rx   d 8 00 00 4E 27 63 00 2B 04
 0.025214 2  1E8             Rx   d 8 00 00 00 00 00 00 00 00
 0.025461 2  4E0             Rx   d 8 00 00 82 00 00 00 7E 00
 0.025658 2  28B             Rx   d 6 C9 02 04 00 00 00
 0.025864 2  28C             Rx   d 6 F0 FC 03 00 00 00
 0.026115 2  3E4             Rx   d 8 00 00 00 00 00 00 03 C0
 0.026334 2  28D             Rx   d 6 ED 02 04 00 00 00
 0.026537 2  28E             Rx   d 6 F2 FF 03 00 00 00
 0.026740 2  28F             Rx   d 6 FE FF 03 00 00 00
 0.026947 2  290             Rx   d 6 12 00 04 00 00 00
 0.027201 2  291             Rx   d 6 FE FF 03 00 00 00
 0.027419 2  4E1             Rx   d 8 00 00 00 00 00 00 00 00
 0.027884 2  3E8             Rx   d 8 00 00 00 00 00 00 03 C0
 0.029082 2  4E9             Rx   d 8 00 00 00 00 00 00 00 00
 0.030285 2  4E4             Rx   d 8 00 00 82 00 00 00 7E 00
 0.030490 2  70F             Rx   d 1 05
 0.030992 2  1E0             Rx   d 8 00 00 00 00 00 00 00 00
 0.032017 2  4E8             Rx   d 8 00 00 82 00 00 00 7E 00
 0.033963 2  25A             Rx   d 8 00 00 02 00 00 00 00 00
 0.034324 2  25E             Rx   d 8 00 00 02 00 00 00 00 00
 0.034706 2  262             Rx   d 8 00 00 02 00 00 00 00 00
 0.034967 2  3E0             Rx   d 8 00 00 00 00 00 00 13 C0
 0.035229 2  266             Rx   d 8 00 00 02 00 00 00 00 00
 0.035442 2  24A             Rx   d 8 00 00 0B 00 00 00 00 00
 0.035798 2  24E             Rx   d 8 00 00 13 00 00 00 00 00
 0.036229 2  252             Rx   d 8 00 00 0B 00 00 00 00 00
 0.036521 2  256             Rx   d 8 00 00 13 00 00 00 00 00
 0.037561 2  4E5             Rx   d 8 00 FF 00 00 00 00 00 00
 0.038055 2  1E4             Rx   d 8 00 00 00 00 00 00 00 00
 0.038294 2  26A             Rx   d 8 00 00 02 00 00 00 00 00
 0.038671 2  26E             Rx   d 8 00 00 02 00 00 00 00 00
 0.039021 2  4E0             Rx   d 8 00 00 82 00 00 00 7E 00
 0.039234 2  272             Rx   d 8 00 00 02 00 00 00 00 00
 0.039480 2  276             Rx   d 8 00 00 02 00 00 00 00 00
 0.039954 2  1E8             Rx   d 8 00 00 00 00 00 00 00 00
 0.042041 2  3E4             Rx   d 8 00 00 00 00 00 00 13 C0
 0.043355 2  4E1             Rx   d 8 00 00 00 00 00 00 FD FF
 0.043904 2  3E8             Rx   d 8 00 00 00 00 00 00 13 C0
 0.045100 2  4E9             Rx   d 8 00 00 00 00 00 00 FF FF
 0.046049 2  4E4             Rx   d 8 00 00 82 00 00 00 7E 00
 0.047010 2  1E0             Rx   d 8 00 00 00 00 00 00 00 00
 0.047964 2  4E8             Rx   d 8 00 00 82 00 00 00 7E 00
 0.050109 2  777             Rx   d 1 05
 0.050915 2  3E0             Rx   d 8 06 00 00 00 00 00 03 C0
 0.053295 2  4E5             Rx   d 8 00 00 00 00 00 00 FF FF
 0.054062 2  1E4             Rx   d 8 00 00 00 00 00 00 00 00
 0.055060 2  4E0             Rx   d 8 00 00 82 00 00 00 7E 00
 0.055956 2  1E8             Rx   d 8 00 00 00 00 00 00 00 00
 0.057981 2  3E4             Rx   d 8 00 00 00 00 00 00 03 C0
 0.058728 2  773             Rx   d 1 05
 0.059365 2  4E1             Rx   d 8 00 00 00 00 01 00 00 00
 0.059880 2  3E8             Rx   d 8 00 00 00 00 00 00 03 C0
 0.060287 2  74F             Rx   d 1 05
 0.060402 2  74B             Rx   d 1 05
 0.060515 2  757             Rx   d 1 05
 0.061009 2  4E9             Rx   d 8 00 00 00 00 00 00 00 00
 0.062096 2  4E4             Rx   d 8 00 00 82 00 00 00 7E 00
 0.062208 2  753             Rx   d 1 05
 0.062435 2  76B             Rx   d 1 05
 0.062990 2  1E0             Rx   d 8 00 00 00 00 00 00 00 00
 0.063257 2  776             Rx   d 1 05
 0.064017 2  4E8             Rx   d 8 00 00 82 00 00 00 7E 00
 0.065272 2  763             Rx   d 1 05
 0.065870 2  80              Rx   d 0 
 0.066102 2  208             Rx   d 6 5A 00 00 00 80 80
 0.066457 2  28A             Rx   d 6 27 FD 03 00 00 00
 0.066578 2  28B             Rx   d 6 CB 02 04 00 00 00
 0.066749 2  1D2             Rx   d 8 00 00 00 01 00 02 01 00
 0.067019 2  1DE             Rx   d 8 00 00 00 01 00 02 01 00
 0.067235 2  2D2             Rx   d 8 00 00 57 28 63 00 29 04
 0.067491 2  1F6             Rx   d 8 00 00 00 E0 00 00 00 00
 0.067749 2  3E0             Rx   d 8 00 00 00 00 00 00 13 C0
 0.067977 2  1CE             Rx   d 8 00 00 00 01 00 02 01 00
 0.068311 2  1DA             Rx   d 8 05 00 00 01 00 01 01 00
 0.068466 2  1E6             Rx   d 8 00 00 00 81 00 02 01 00
 0.068709 2  2CE             Rx   d 8 00 00 60 2B 64 00 2A 04
 0.068813 2  76F             Rx   d 1 05
 0.069061 2  1D6             Rx   d 8 00 00 00 01 00 02 01 00
 0.069309 2  1EA             Rx   d 8 00 00 00 60 00 00 00 00
 0.069552 2  2D6             Rx   d 8 00 00 54 28 64 00 28 04
 0.069794 2  1F2             Rx   d 8 00 00 00 E0 00 00 00 00
 0.070037 2  1CA             Rx   d 8 00 00 00 81 00 02 01 00
 0.070287 2  1E2             Rx   d 8 00 00 00 81 00 02 01 00
 0.070530 2  1E4             Rx   d 8 00 00 00 00 00 00 00 00
 0.070780 2  1EE             Rx   d 8 00 00 00 60 00 00 00 00
 0.071016 2  2EA             Rx   d 8 00 00 4E 26 64 00 79 04
 0.071276 2  2EE             Rx   d 8 00 00 4F 28 64 00 3E 04
 0.071512 2  4E0             Rx   d 8 00 00 82 00 00 00 7E 00
 0.071814 2  28C             Rx   d 6 F3 FC 03 00 00 00
 0.071967 2  1E8             Rx   d 8 00 00 00 00 01 00 00 00
 0.072235 2  4E5             Rx   d 8 00 00 00 00 00 00 FF FF
 0.072421 2  28D             Rx   d 6 E8 02 04 00 00 00
 0.072530 2  74E             Rx   d 1 05
 0.072667 2  75B             Rx   d 1 05
 0.072771 2  75F             Rx   d 1 05
 0.072885 2  767             Rx   d 1 05
 0.072998 2  772             Rx   d 1 05
 0.073294 2  28E             Rx   d 6 F3 FF 03 00 00 00
 0.073331 2  76A             Rx   d 1 05
 0.073540 2  28F             Rx   d 6 FE FF 03 00 00 00
 0.073745 2  290             Rx   d 6 12 00 04 00 00 00
 0.073991 2  3E4             Rx   d 8 00 00 00 00 00 00 13 C0
 0.074243 2  291             Rx   d 6 FD FF 03 00 00 00
 0.074306 2  74A             Rx   d 1 05
 0.074924 2  75E             Rx   d 1 05
 0.075389 2  4E1             Rx   d 8 00 FF 00 00 01 00 00 00
 0.075892 2  3E8             Rx   d 8 00 00 00 00 00 00 13 C0
 0.076870 2  756             Rx   d 1 05
 0.077100 2  4E9             Rx   d 8 00 FF 00 00 00 00 00 00
 0.077740 2  76E             Rx   d 1 05
 0.078044 2  4E4             Rx   d 8 00 00 82 00 00 00 7E 00
 0.078573 2  752             Rx   d 1 05
 0.078983 2  1E0             Rx   d 8 00 00 00 00 00 00 00 00
 0.079225 2  25A             Rx   d 8 00 00 02 80 00 00 00 00
 0.079620 2  25E             Rx   d 8 00 00 02 80 00 00 00 00
 0.079901 2  262             Rx   d 8 00 00 02 80 00 00 00 00
 0.080077 2  4E8             Rx   d 8 00 00 82 00 00 00 7E 00
 0.080332 2  266             Rx   d 8 00 00 02 80 00 00 00 00
 0.080564 2  24A             Rx   d 8 00 00 0B 80 00 00 00 00
 0.081227 2  24E             Rx   d 8 00 00 13 80 00 00 00 00
 0.081436 2  252             Rx   d 8 00 00 0B 80 00 00 00 00
 0.081971 2  256             Rx   d 8 00 00 13 80 00 00 00 00
 0.081989 2  762             Rx   d 1 05
 0.082988 2  3E0             Rx   d 8 FE FF 00 00 00 00 03 C0
 0.083591 2  26A             Rx   d 8 00 00 02 80 00 00 00 00
 0.083797 2  766             Rx   d 1 05
 0.084055 2  26E             Rx   d 8 00 00 02 80 00 00 00 00
 0.084221 2  75A             Rx   d 1 05
 0.084407 2  272             Rx   d 8 00 00 02 80 00 00 00 00
 0.084711 2  276             Rx   d 8 00 00 02 80 00 00 00 00
 0.085572 2  4E5             Rx   d 8 00 00 00 00 00 00 00 00
 0.086042 2  1E4             Rx   d 8 00 00 00 00 00 00 00 00
 0.087073 2  4E0             Rx   d 8 00 00 82 00 00 00 7E 00
 0.087971 2  1E8             Rx   d 8 00 00 00 00 00 00 00 00
 0.089995 2  3E4             Rx   d 8 00 00 00 00 00 00 03 C0
 0.091346 2  4E1             Rx   d 8 00 FF 00 00 01 00 00 00
 0.091885 2  3E8             Rx   d 8 00 00 00 00 00 00 03 C0
 0.092999 2  4E9             Rx   d 8 00 FF 00 00 00 00 00 00
 0.094089 2  4E4             Rx   d 8 00 00 82 00 00 00 7E 00
 0.094997 2  1E0             Rx   d 8 00 00 00 00 00 00 00 00
 0.095999 2  4E8             Rx   d 8 00 00 82 00 00 00 7E 00
 0.098956 2  3E0             Rx   d 8 00 00 00 00 00 00 13 C0
 0.101519 2  4E5             Rx   d 8 00 00 00 00 00 00 00 00
 0.102047 2  1E4             Rx   d 8 00 00 00 00 00 00 00 00
 0.103051 2  4E0             Rx   d 8 00 00 82 00 00 00 7E 00
 0.103961 2  1E8             Rx   d 8 00 00 00 00 00 00 00 00
 0.105630 2  701             Rx   d 1 05
 0.105984 2  3E4             Rx   d 8 00 00 00 00 00 00 13 C0
 0.106405 2  70D             Rx   d 1 05
 0.107361 2  4E1             Rx   d 8 00 00 00 00 00 00 FF FF
 0.107880 2  3E8             Rx   d 8 02 00 00 00 00 00 13 C0
 0.109070 2  4E9             Rx   d 8 00 00 00 00 00 00 FF FF
 0.110067 2  4E4             Rx   d 8 00 00 82 00 00 00 7E 00
 0.111007 2  1E0             Rx   d 8 00 00 00 00 00 00 00 00
 0.111971 2  4E8             Rx   d 8 00 00 82 00 00 00 7E 00
 0.114086 2  777             Rx   d 1 05
 0.115005 2  3E0             Rx   d 8 00 00 00 00 00 00 03 C0
 0.115240 2  188             Rx   d 8 08 00 01 00 00 01 00 00
 0.117680 2  4E5             Rx   d 8 00 00 00 00 00 00 00 00
 0.118053 2  1E4             Rx   d 8 00 00 00 00 00 00 00 00
 0.118776 2  25A             Rx   d 8 00 00 02 00 00 00 00 00
 0.119053 2  4E0             Rx   d 8 00 00 82 00 00 00 7E 00
 0.119298 2  25E             Rx   d 8 00 00 02 00 00 00 00 00
 0.119541 2  262             Rx   d 8 00 00 02 00 00 00 00 00
 0.119644 2  70C             Rx   d 1 05
 0.119905 2  266             Rx   d 8 00 00 02 00 00 00 00 00
 0.120223 2  1E8             Rx   d 8 00 00 00 00 01 00 00 00
 0.120398 2  24A             Rx   d 8 00 00 0B 00 00 00 00 00
 0.120777 2  24E             Rx   d 8 00 00 13 00 00 00 00 00
 0.121136 2  252             Rx   d 8 00 00 0B 00 00 00 00 00
 0.121489 2  256             Rx   d 8 00 00 13 00 00 00 00 00
 0.121808 2  70B             Rx   d 1 05
 0.122132 2  3E4             Rx   d 8 00 00 00 00 00 00 03 C0
 0.122723 2  773             Rx   d 1 05
 0.123271 2  26A             Rx   d 8 00 00 02 00 00 00 00 00
 0.123516 2  4E1             Rx   d 8 00 00 00 00 00 00 00 00
 0.123845 2  26E             Rx   d 8 00 00 02 00 00 00 00 00
 0.124023 2  272             Rx   d 8 00 00 02 00 00 00 00 00
 0.124268 2  3E8             Rx   d 8 01 00 00 00 00 00 03 C0
 0.124508 2  276             Rx   d 8 00 00 02 00 00 00 00 00
 0.124620 2  74B             Rx   d 1 05
 0.124733 2  74F             Rx   d 1 05
 0.124852 2  757             Rx   d 1 05
 0.125144 2  4E9             Rx   d 8 00 00 00 00 00 00 00 00
 0.126116 2  4E4             Rx   d 8 00 00 82 00 00 00 7E 00
 0.126254 2  753             Rx   d 1 05
 0.126619 2  76B             Rx   d 1 05
 0.127003 2  1E0             Rx   d 8 00 00 00 00 00 00 00 00
 0.127236 2  776             Rx   d 1 05
 0.128032 2  4E8             Rx   d 8 00 00 82 00 00 00 7E 00
 0.129313 2  763             Rx   d 1 05
 0.130939 2  3E0             Rx   d 8 00 00 00 00 00 00 13 C0
 0.131213 2  76F             Rx   d 1 05
 0.133290 2  4E5             Rx   d 8 00 00 00 00 00 00 00 00
 0.133679 2  772             Rx   d 1 05
 0.133798 2  75B             Rx   d 1 05
 0.134063 2  1E4             Rx   d 8 00 00 00 00 01 00 00 00
 0.135016 2  4E0             Rx   d 8 00 00 82 00 00 00 7E 00
 0.135106 2  75F             Rx   d 1 05
 0.135724 2  74E             Rx   d 1 05
 0.135982 2  1E8             Rx   d 8 00 00 00 00 01 00 00 00
 0.136927 2  767             Rx   d 1 05
 0.137235 2  76A             Rx   d 1 05
 0.137874 2  74A             Rx   d 1 05
 0.138057 2  3E4             Rx   d 8 00 00 00 00 00 00 13 C0
 0.138792 2  75E             Rx   d 1 05
 0.139370 2  4E1             Rx   d 8 00 00 00 00 00 00 FF FF
 0.139895 2  3E8             Rx   d 8 00 00 00 00 00 00 13 C0
 0.139999 2  70E             Rx   d 1 05
 0.140857 2  756             Rx   d 1 05
 0.141110 2  4E9             Rx   d 8 00 00 00 00 00 00 FF FF
 0.141753 2  76E             Rx   d 1 05
 0.142136 2  4E4             Rx   d 8 00 00 82 00 00 00 7E 00
 0.142580 2  752             Rx   d 1 05
 0.142997 2  1E0             Rx   d 8 00 00 00 00 00 00 00 00
 0.143130 2  710             Rx   d 1 05
 0.143954 2  4E8             Rx   d 8 00 00 82 00 00 00 7E 00
 0.145147 2  80              Rx   d 0 
 0.145382 2  208             Rx   d 6 5A 00 00 00 80 80
 0.145582 2  28A             Rx   d 6 25 FD 03 00 00 00
 0.145842 2  1F2             Rx   d 8 00 00 00 60 00 00 00 00
 0.146233 2  1CA             Rx   d 8 00 00 00 01 00 02 01 00
 0.146323 2  1E2             Rx   d 8 00 00 00 01 00 02 01 00
 0.146567 2  1EE             Rx   d 8 00 00 00 E0 00 00 00 00
 0.146817 2  1D2             Rx   d 8 00 00 00 81 00 02 01 00
 0.149021 2  1D6             Rx   d 8 00 00 00 81 00 02 01 00
 0.151607 2  290             Rx   d 6 11 00 04 00 00 00
 0.154065 2  3E4             Rx   d 8 00 00 00 00 00 00 03 C0
 0.157389 2  4E9             Rx   d 8 00 00 00 00 00 00 00 00
 0.161282 2  256             Rx   d 8 00 00 13 80 00 00 00 00
 0.163014 2  3E0             Rx   d 8 00 00 00 00 00 00 13 C0
 0.165550 2  4E5             Rx   d 8 00 00 00 00 00 00 00 00
 0.170060 2  3E4             Rx   d 8 00 00 00 00 00 00 13 C0
 0.171315 2  4E1             Rx   d 8 00 00 00 00 00 00 00 00
 0.173030 2  4E9             Rx   d 8 00 00 00 00 00 00 00 00
 0.175011 2  1E0             Rx   d 8 00 00 00 00 00 00 00 00
 0.178144 2  777             Rx   d 1 05
 0.181499 2  4E5             Rx   d 8 00 00 00 00 00 00 FF FF
 0.182052 2  1E4             Rx   d 8 00 00 00 00 00 00 00 00
 0.193707 2  28A             Rx   d 6 24 FD 03 00 00 00
 0.196360 2  1E6             Rx   d 8 01 00 00 81 00 02 01 00
 0.199018 2  4E0             Rx   d 8 00 00 82 00 00 00 7E 00
 0.204893 2  756             Rx   d 1 05
 0.206560 2  262             Rx   d 8 00 00 02 00 00 00 00 00
 0.209878 2  762             Rx   d 1 05
 0.211786 2  766             Rx   d 1 05
 0.214128 2  1E4             Rx   d 8 00 00 00 00 00 00 00 00
 0.218026 2  3E4             Rx   d 8 00 00 00 00 00 00 03 C0
 0.226969 2  3E0             Rx   d 8 04 00 00 00 00 00 13 C0
 0.228989 2  708             Rx   d 1 05
 0.239898 2  1CE             Rx   d 8 00 00 00 81 00 02 01 00
 0.242982 2  3E0             Rx   d 8 00 00 00 00 00 00 03 C0
 0.248028 2  1E8             Rx   d 8 00 00 00 00 00 00 00 00
 0.250027 2  3E4             Rx   d 8 00 00 00 00 00 00 03 C0
 0.252239 2  266             Rx   d 8 00 00 02 80 00 00 00 00
 0.255060 2  1E0             Rx   d 8 00 00 00 00 00 01 00 00
 0.258969 2  3E0             Rx   d 8 FD FF 00 00 00 00 13 C0
 0.261513 2  4E5             Rx   d 8 00 00 00 00 00 00 FF FF
 0.262057 2  1E4             Rx   d 8 00 00 00 00 01 00 00 00
 0.264882 2  767             Rx   d 1 05
 0.267237 2  4E1             Rx   d 8 00 00 00 00 00 00 00 00
 0.268914 2  756             Rx   d 1 05
 0.273862 2  762             Rx   d 1 05
 0.275772 2  766             Rx   d 1 05
 0.279030 2  1DE             Rx   d 8 00 00 00 01 00 01 01 00
 0.290957 2  3E0             Rx   d 8 00 00 00 00 00 00 13 C0
 0.295511 2  26A             Rx   d 8 00 00 02 00 00 00 00 00
 0.299965 2  3E8             Rx   d 8 00 00 00 00 00 00 13 C0
 0.306065 2  777             Rx   d 1 05
 0.311077 2  4E0             Rx   d 8 00 00 82 00 00 00 7E 00
 0.314036 2  3E4             Rx   d 8 00 00 00 00 00 00 03 C0
 0.314726 2  773             Rx   d 1 05
 0.317105 2  4E9             Rx   d 8 00 00 00 00 00 00 00 00
 0.320042 2  4E8             Rx   d 8 00 00 82 00 00 00 7E 00
 0.322977 2  3E0             Rx   d 8 00 00 00 00 00 00 13 C0
 0.325578 2  4E5             Rx   d 8 00 FF 00 00 00 00 00 00
 0.326072 2  1E4             Rx   d 8 00 00 00 00 00 00 00 00
 0.328871 2  767             Rx   d 1 05
 0.333036 2  4E9             Rx   d 8 00 00 00 00 00 00 00 00
 0.334600 2  752             Rx   d 1 05
 0.337895 2  762             Rx   d 1 05
 0.338949 2  3E0             Rx   d 8 00 00 00 00 00 00 03 C0
 0.347804 2  4E1             Rx   d 8 00 00 00 00 00 00 FF FF
 0.351021 2  1E0             Rx   d 8 00 00 00 00 00 00 00 00
 0.357336 2  25A             Rx   d 8 00 00 02 80 00 00 00 00
 0.358342 2  1E4             Rx   d 8 00 00 00 00 01 00 00 00
 0.361436 2  70B             Rx   d 1 05
 0.365052 2  4E9             Rx   d 8 00 00 00 00 00 00 00 00
 0.367039 2  1E0             Rx   d 8 00 00 00 00 00 01 00 00
 0.370082 2  777             Rx   d 1 05
 0.370976 2  3E0             Rx   d 8 00 00 00 00 00 00 03 C0
 0.373523 2  4E5             Rx   d 8 00 FF 00 00 00 00 FF FF
 0.375986 2  1E8             Rx   d 8 00 00 00 00 00 00 00 00
 0.385510 2  1EA             Rx   d 8 00 00 00 60 00 00 00 00
 0.388243 2  1DA             Rx   d 8 02 00 00 01 00 01 01 00
 0.390655 2  772             Rx   d 1 05
 0.395916 2  3E8             Rx   d 8 02 00 00 00 00 00 13 C0
 0.398083 2  4E4             Rx   d 8 00 00 82 00 00 00 7E 00
 0.400618 2  70A             Rx   d 1 05
 0.402744 2  26A             Rx   d 8 00 00 02 00 00 00 00 00
 0.405654 2  4E5             Rx   d 8 00 00 00 00 00 00 00 00
 0.407988 2  1E8             Rx   d 8 00 00 00 00 01 00 00 00
 0.410040 2  3E4             Rx   d 8 00 00 00 00 00 00 03 C0
 0.413032 2  4E9             Rx   d 8 00 00 00 00 00 00 00 00
 0.414235 2  4E4             Rx   d 8 00 00 82 00 00 00 7E 00
 0.423285 2  4E0             Rx   d 8 00 00 82 00 00 00 7E 00
 0.432886 2  80              Rx   d 0 
 0.435684 2  3E0             Rx   d 8 00 00 00 00 00 00 03 C0
 0.442036 2  3E4             Rx   d 8 00 00 00 00 00 00 03 C0
 0.444323 2  74F             Rx   d 1 05
 0.446556 2  76B             Rx   d 1 05
 0.448966 2  24E             Rx   d 8 00 00 13 80 00 00 00 00
 0.451009 2  3E0             Rx   d 8 00 00 00 00 00 00 13 C0
 0.454096 2  1E4             Rx   d 8 00 00 00 00 01 00 00 00
 0.456880 2  767             Rx   d 1 05
 0.458836 2  75E             Rx   d 1 05
 0.461822 2  76E             Rx   d 1 05
 0.464022 2  4E8             Rx   d 8 00 00 82 00 00 00 7E 00
 0.466987 2  3E0             Rx   d 8 00 00 00 00 00 00 03 C0
 0.469595 2  4E5             Rx   d 8 00 00 00 00 00 00 FF FF
 0.481631 2  ErrorFrame
 0.483498 2  1D6             Rx   d 8 00 00 00 01 00 01 01 00
 0.490039 2  3E4             Rx   d 8 00 00 00 00 00 00 13 C0
 0.491932 2  3E8             Rx   d 8 00 00 00 00 00 00 13 C0
 0.494356 2  24E             Rx   d 8 00 00 13 00 00 00 00 00
 0.497005 2  26E             Rx   d 8 00 00 02 00 00 00 00 00
 0.501508 2  4E5             Rx   d 8 00 00 00 00 00 00 00 00
 0.502100 2  1E4             Rx   d 8 00 00 00 00 01 00 00 00
 0.504010 2  1E8             Rx   d 8 00 00 00 00 00 00 00 00
 0.506064 2  3E4             Rx   d 8 00 00 00 00 00 00 03 C0
 0.508252 2  74F             Rx   d 1 05
 0.512079 2  4E8             Rx   d 8 00 00 82 00 00 00 7E 00
 0.513288 2  763             Rx   d 1 05
 0.515245 2  76F             Rx   d 1 05
 0.517511 2  4E5             Rx   d 8 00 00 00 00 00 00 FF FF
 0.519764 2  74E             Rx   d 1 05
 0.522849 2  75E             Rx   d 1 05
 0.525095 2  4E9             Rx   d 8 00 00 00 00 01 00 FF FF
 0.528013 2  4E8             Rx   d 8 00 00 82 00 00 00 7E 00
 0.535115 2  4E0             Rx   d 8 00 00 82 00 00 00 7E 00
 0.538048 2  3E4             Rx   d 8 00 00 00 00 00 00 03 C0
 0.551067 2  26A             Rx   d 8 00 00 02 80 00 00 00 00
 0.554063 2  3E4             Rx   d 8 00 00 00 00 00 00 13 C0
 0.555937 2  3E8             Rx   d 8 00 00 00 00 00 00 13 C0
 0.562126 2  777             Rx   d 1 05
 0.563006 2  3E0             Rx   d 8 FC FF 00 00 00 00 03 C0
 0.578939 2  28E             Rx   d 6 F3 FF 03 00 00 00
 0.587831 2  24A             Rx   d 8 00 00 0B 00 00 00 00 00
 0.590123 2  4E4             Rx   d 8 00 00 82 00 00 00 7E 00
 0.593924 2  762             Rx   d 1 05
 0.594996 2  3E0             Rx   d 8 03 00 00 00 00 00 03 C0
 0.597495 2  4E5             Rx   d 8 00 00 00 00 00 00 FF FF
 0.600018 2  1E8             Rx   d 8 00 00 00 00 00 00 00 00
 0.601509 2  70B             Rx   d 1 05
 0.605019 2  4E9             Rx   d 8 00 FF 00 00 00 00 00 00
 0.606229 2  4E4             Rx   d 8 00 00 82 00 00 00 7E 00
 0.610995 2  3E0             Rx   d 8 00 00 00 00 00 00 13 C0
 0.613518 2  4E5             Rx   d 8 00 FF 00 00 00 00 00 00
 0.614120 2  1E4             Rx   d 8 00 00 00 00 00 00 00 00
 0.615068 2  4E0             Rx   d 8 00 00 82 00 00 00 7E 00
 0.617877 2  188             Rx   d 8 88 00 01 00 00 01 00 00
 0.625863 2  777             Rx   d 1 05
 0.629552 2  4E5             Rx   d 8 00 00 00 00 00 00 00 00
 0.631117 2  4E0             Rx   d 8 00 00 82 00 00 00 7E 00
 0.634084 2  3E4             Rx   d 8 00 00 00 00 00 00 03 C0
 0.634686 2  773             Rx   d 1 05
 0.645526 2  4E5             Rx   d 8 00 00 00 00 00 00 00 00
 0.647790 2  74E             Rx   d 1 05
 0.650005 2  1CA             Rx   d 8 00 00 00 81 00 02 01 00
 0.655120 2  756             Rx   d 1 05
 0.661509 2  4E5             Rx   d 8 00 FF 00 00 00 00 FF FF
 0.667276 2  4E1             Rx   d 8 00 00 00 00 00 00 00 00
 0.669024 2  4E9             Rx   d 8 00 00 00 00 00 00 00 00
 0.677493 2  4E5             Rx   d 8 00 FF 00 00 FF 00 FF FF
 0.679081 2  4E0             Rx   d 8 00 00 82 00 00 00 7E 00
 0.685282 2  4E9             Rx   d 8 00 00 00 00 00 00 00 00
 0.699009 2  1DE             Rx   d 8 00 00 00 81 00 01 01 00
 0.701270 2  4E1             Rx   d 8 00 00 00 00 00 00 FF FF
 0.709025 2  25A             Rx   d 8 00 00 02 00 00 00 00 00
 0.710613 2  24A             Rx   d 8 00 00 0B 00 00 00 00 00
 0.718118 2  4E4             Rx   d 8 00 00 82 00 00 00 7E 00
 0.723846 2  766             Rx   d 1 05
 0.726138 2  1E4             Rx   d 8 00 00 00 00 00 00 00 00
 0.728033 2  1E8             Rx   d 8 00 00 00 00 00 00 00 00
 0.730131 2  3E4             Rx   d 8 00 00 00 00 00 00 03 C0
 0.733006 2  4E9             Rx   d 8 00 00 00 00 00 00 FF FF
 0.735815 2  80              Rx   d 0 
 0.737979 2  1EE             Rx   d 8 00 00 00 60 00 00 00 00
 0.740655 2  3E0             Rx   d 8 FE FF 00 00 00 00 13 C0
 0.747962 2  3E8             Rx   d 8 00 00 00 00 00 00 13 C0
 0.754058 2  26A             Rx   d 8 00 00 02 80 00 00 00 00
 0.755277 2  276             Rx   d 8 00 00 02 80 00 00 00 00
 0.757544 2  4E5             Rx   d 8 00 FF 00 00 00 00 00 00
 0.762659 2  773             Rx   d 1 05
 0.766273 2  4E4             Rx   d 8 00 00 82 00 00 00 7E 00
 0.781428 2  4E9             Rx   d 8 00 00 00 00 00 00 00 00
 0.789521 2  4E5             Rx   d 8 00 00 00 00 00 00 FF FF
 0.797023 2  4E9             Rx   d 8 00 FF 00 00 00 00 00 00
 0.800096 2  4E8             Rx   d 8 00 00 82 00 00 00 7E 00
 0.807076 2  4E0             Rx   d 8 00 00 82 00 00 00 7E 00
 0.811988 2  3E8             Rx   d 8 00 00 00 00 00 00 13 C0
 0.827639 2  1F6             Rx   d 8 00 00 00 E0 00 00 00 00
 0.842431 2  26A             Rx   d 8 00 00 02 80 00 00 00 00
 0.848054 2  4E8             Rx   d 8 00 00 82 00 00 00 7E 00
 0.852039 2  75A             Rx   d 1 05
 0.858102 2  3E4             Rx   d 8 00 00 00 00 00 00 03 C0
 0.859216 2  4E1             Rx   d 8 00 00 00 00 00 00 00 00
 0.860907 2  4E9             Rx   d 8 00 FF 00 00 00 00 00 00
 0.863105 2  1E0             Rx   d 8 00 00 00 00 00 00 00 00
 0.867044 2  3E0             Rx   d 8 00 00 00 00 00 00 13 C0
 0.868767 2  188             Rx   d 8 08 00 01 00 00 01 00 00
 0.870221 2  1E4             Rx   d 8 00 00 00 00 00 00 00 00
 0.879086 2  1E0             Rx   d 8 00 00 00 00 00 00 00 00
 0.882031 2  777             Rx   d 1 05
 0.885504 2  4E5             Rx   d 8 00 00 00 00 00 00 FF FF
 0.896635 2  80              Rx   d 0 
 0.899449 2  1F6             Rx   d 8 00 00 00 60 00 00 00 00
 0.902778 2  291             Rx   d 6 FE FF 03 00 00 00
 0.908003 2  3E8             Rx   d 8 00 00 00 00 00 00 13 C0
 0.909831 2  76E             Rx   d 1 05
 0.912238 2  4E8             Rx   d 8 00 00 82 00 00 00 7E 00
 0.915049 2  3E0             Rx   d 8 FF FF 00 00 00 00 03 C0
 0.917445 2  4E5             Rx   d 8 00 00 00 00 00 00 00 00
 0.920051 2  1E8             Rx   d 8 00 00 00 00 00 00 00 00
 0.922105 2  3E4             Rx   d 8 00 00 00 00 00 00 03 C0
 0.925043 2  4E9             Rx   d 8 00 00 00 00 00 00 00 00
 0.927091 2  1E0             Rx   d 8 00 00 00 00 00 00 00 00
 0.931050 2  3E0             Rx   d 8 00 00 00 00 00 00 13 C0
 0.933451 2  4E5             Rx   d 8 00 00 00 00 00 00 FF FF
 0.934198 2  1E4             Rx   d 8 00 00 00 00 00 00 00 00
 0.935088 2  4E0             Rx   d 8 00 00 82 00 00 00 7E 00
 0.937757 2  28A             Rx   d 6 25 FD 03 00 00 00
 0.940467 2  1E6             Rx   d 8 00 00 00 81 00 02 01 00
 0.942782 2  28E             Rx   d 6 F1 FF 03 00 00 00
 0.946002 2  777             Rx   d 1 05
 0.949542 2  4E5             Rx   d 8 00 00 00 00 00 00 FF FF
 0.950149 2  1E4             Rx   d 8 00 00 00 00 00 00 00 00
 0.954659 2  773             Rx   d 1 05
 0.958006 2  753             Rx   d 1 05
 0.965507 2  4E5             Rx   d 8 00 00 00 00 00 00 00 00
 0.977968 2  762             Rx   d 1 05
 0.979050 2  3E0             Rx   d 8 00 00 00 00 00 00 03 C0
 0.981763 2  4E5             Rx   d 8 00 00 00 00 00 00 00 00
 0.983223 2  4E0             Rx   d 8 00 00 82 00 00 00 7E 00
 0.986119 2  3E4             Rx   d 8 00 00 00 00 00 00 03 C0
 0.994338 2  26A             Rx   d 8 00 00 02 00 00 00 00 00
 0.995269 2  272             Rx   d 8 00 00 02 00 00 00 00 00
 0.999102 2  4E0             Rx   d 8 00 00 82 00 00 00 7E 00
 1.002123 2  3E4             Rx   d 8 00 00 00 00 00 00 13 C0
 1.003149 2  4E1             Rx   d 8 00 00 00 00 00 00 00 00
 1.006214 2  4E4             Rx   d 8 00 00 82 00 00 00 7E 00
 1.010036 2  777             Rx   d 1 05
 1.011042 2  3E0             Rx   d 8 00 00 00 00 00 00 03 C0
 1.013474 2  4E5             Rx   d 8 00 00 00 00 00 00 00 00
 1.026631 2  290             Rx   d 6 11 00 04 00 00 00
 1.038926 2  26E             Rx   d 8 00 00 02 80 00 00 00 00
 1.045594 2  4E5             Rx   d 8 00 00 00 00 00 00 00 00
 1.050125 2  3E4             Rx   d 8 00 00 00 00 00 00 03 C0
 1.054257 2  4E4             Rx   d 8 00 00 82 00 00 00 7E 00
 1.072715 2  290             Rx   d 6 12 00 04 00 00 00
 1.077460 2  4E5             Rx   d 8 00 00 00 00 00 00 00 00
 1.084064 2  3E8             Rx   d 8 00 00 00 00 00 00 03 C0
 1.091053 2  3E0             Rx   d 8 FE FF 00 00 00 00 13 C0
 1.093465 2  4E5             Rx   d 8 00 00 00 00 00 00 00 00
 1.099219 2  4E1             Rx   d 8 00 FF 00 00 01 00 00 00
 1.104070 2  4E8             Rx   d 8 00 00 82 00 00 00 7E 00
 1.109140 2  1D6             Rx   d 8 02 00 00 81 00 02 01 00
 1.116012 2  3E8             Rx   d 8 00 00 00 00 00 00 03 C0
 1.123133 2  3E0             Rx   d 8 05 00 00 00 00 00 13 C0
 1.128068 2  1E8             Rx   d 8 00 00 00 00 00 00 00 00
 1.134320 2  4E4             Rx   d 8 00 00 82 00 00 00 7E 00
 1.141494 2  4E5             Rx   d 8 00 00 00 00 00 00 00 00
 1.146130 2  3E4             Rx   d 8 00 00 00 00 00 00 03 C0
 1.153295 2  763             Rx   d 1 05
 1.158903 2  75F             Rx   d 1 05
 1.169545 2  28C             Rx   d 6 F2 FC 03 00 00 00
 1.173470 2  4E5             Rx   d 8 00 00 00 00 00 00 00 00
 1.181899 2  26A             Rx   d 8 00 00 02 00 00 00 00 00
 1.191130 2  4E0             Rx   d 8 00 00 82 00 00 00 7E 00
 1.195240 2  4E1             Rx   d 8 00 00 00 00 00 00 FF FF
 1.209009 2  2E6             Rx   d 8 00 00 4E 27 63 00 2B 04
 1.217233 2  763             Rx   d 1 05
 1.223787 2  26A             Rx   d 8 00 00 02 80 00 00 00 00
 1.230684 2  752             Rx   d 1 05
 1.242149 2  3E4             Rx   d 8 00 00 00 00 00 00 03 C0
 1.254495 2  208             Rx   d 6 5A 00 00 00 80 80
 1.266003 2  777             Rx   d 1 05
 1.269409 2  266             Rx   d 8 00 00 02 00 00 00 00 00
 1.275275 2  4E1             Rx   d 8 00 00 00 00 00 00 00 00
 1.280145 2  4E8             Rx   d 8 00 00 82 00 00 00 7E 00
 1.285463 2  4E5             Rx   d 8 00 00 00 00 00 00 00 00
 1.301775 2  4E5             Rx   d 8 00 00 00 00 00 00 00 00
 1.306807 2  28F             Rx   d 6 FB FF 03 00 00 00
 1.315544 2  24E             Rx   d 8 00 00 13 80 00 00 00 00
 1.324053 2  3E8             Rx   d 8 00 00 00 00 00 00 13 C0
 1.329820 2  777             Rx   d 1 05
 1.334256 2  1E4             Rx   d 8 00 00 00 00 00 00 00 00
 1.342023 2  753             Rx   d 1 05
 1.345239 2  763             Rx   d 1 05
 1.350882 2  75F             Rx   d 1 05
 1.356093 2  3E8             Rx   d 8 00 00 00 00 00 00 13 C0
 1.362000 2  762             Rx   d 1 05
 1.366261 2  1E4             Rx   d 8 00 00 00 00 00 00 00 00
 1.370245 2  3E4             Rx   d 8 00 00 00 00 00 00 03 C0
 1.377241 2  1D6             Rx   d 8 00 00 00 01 00 02 01 00
 1.397450 2  4E5             Rx   d 8 00 00 00 00 00 00 00 00
 1.402233 2  3E4             Rx   d 8 00 00 00 00 00 00 03 C0
 1.408211 2  4E8             Rx   d 8 00 00 82 00 00 00 7E 00
 1.411108 2  3E0             Rx   d 8 00 00 00 00 00 00 13 C0
 1.416126 2  1E8             Rx   d 8 00 00 00 00 00 00 00 00
 1.422715 2  752             Rx   d 1 05
 1.427092 2  3E0             Rx   d 8 00 00 00 00 00 00 03 C0
 1.432112 2  1E8             Rx   d 8 00 00 00 00 00 00 00 00
 1.452048 2  3E8             Rx   d 8 00 00 00 00 00 00 13 C0
 1.457450 2  262             Rx   d 8 00 00 02 00 00 00 00 00
 1.462450 2  276             Rx   d 8 00 00 02 00 00 00 00 00
 1.469973 2  753             Rx   d 1 05
 1.475096 2  3E0             Rx   d 8 02 00 00 00 00 00 13 C0
 1.479220 2  4E0             Rx   d 8 00 00 82 00 00 00 7E 00
 1.492997 2  28A             Rx   d 6 26 FD 03 00 00 00
 1.500846 2  4E9             Rx   d 8 00 FF 00 00 00 00 FE FF
 1.505839 2  262             Rx   d 8 00 00 02 80 00 00 00 00
 1.512113 2  1E8             Rx   d 8 00 00 00 00 00 00 00 00
 1.516052 2  3E8             Rx   d 8 00 00 00 00 00 00 13 C0
 1.521965 2  777             Rx   d 1 05
 1.538059 2  1EE             Rx   d 8 00 00 00 E0 00 00 00 00
 1.551499 2  24A             Rx   d 8 00 00 0B 00 00 00 00 00
 1.556134 2  75A             Rx   d 1 05
 1.560218 2  1E8             Rx   d 8 00 00 00 00 01 00 00 00
 1.566275 2  4E4             Rx   d 8 00 00 82 00 00 00 7E 00
 1.573447 2  4E5             Rx   d 8 00 00 00 00 00 00 00 00
 1.576126 2  1E8             Rx   d 8 00 00 00 00 01 00 00 00
 1.588429 2  25A             Rx   d 8 00 00 02 80 00 00 00 00
 1.596877 2  4E9             Rx   d 8 00 FF 00 00 00 00 00 00
 1.603128 2  3E0             Rx   d 8 00 00 00 00 00 00 13 C0
 1.616219 2  1CE             Rx   d 8 0B 00 00 01 00 02 01 00
 1.626258 2  3E4             Rx   d 8 00 00 00 00 00 00 03 C0
 1.629049 2  4E9             Rx   d 8 00 00 00 00 00 00 00 00
 1.635100 2  3E0             Rx   d 8 00 00 00 00 00 00 13 C0
 1.642237 2  3E4             Rx   d 8 00 00 00 00 00 00 13 C0
 1.669501 2  4E5             Rx   d 8 00 00 00 00 00 00 00 00
 1.677925 2  76E             Rx   d 1 05
 1.687303 2  4E0             Rx   d 8 00 00 82 00 00 00 7E 00
 1.694301 2  4E4             Rx   d 8 00 00 82 00 00 00 7E 00
 1.701411 2  4E5             Rx   d 8 00 00 00 00 00 00 FF FF
 1.710660 2  70F             Rx   d 1 05
 1.744224 2  4E8             Rx   d 8 00 00 82 00 00 00 7E 00
 1.754315 2  3E4             Rx   d 8 00 00 00 00 FF FF 01 C0
 1.768125 2  1E8             Rx   d 8 00 00 00 00 00 00 00 00
 1.777955 2  777             Rx   d 1 05
 1.788086 2  3E8             Rx   d 8 00 00 00 00 00 00 03 C0
 1.792248 2  4E8             Rx   d 8 00 00 82 00 00 00 7E 00
 1.797826 2  772             Rx   d 1 05
 1.803116 2  4E1             Rx   d 8 00 00 00 00 00 00 00 00
 1.810544 2  1E2             Rx   d 8 00 00 00 01 00 02 01 00
 1.820096 2  3E8             Rx   d 8 00 00 00 00 00 00 03 C0
 1.829499 2  4E5             Rx   d 8 00 00 00 00 00 00 00 00
 1.834258 2  3E4             Rx   d 8 00 00 00 00 00 00 13 C0
 1.843232 2  3E0             Rx   d 8 00 00 00 00 00 00 03 C0
 1.853897 2  753             Rx   d 1 05
 1.858773 2  25A             Rx   d 8 00 00 02 80 00 00 00 00
 1.863248 2  4E0             Rx   d 8 00 00 82 00 00 00 7E 00
 1.868827 2  4E9             Rx   d 8 00 FF 00 00 00 00 FF FF
 1.874067 2  762             Rx   d 1 05
 1.879292 2  4E0             Rx   d 8 00 00 82 00 00 00 7E 00
 1.882058 2  208             Rx   d 6 5A 00 00 00 80 80
 1.893393 2  4E5             Rx   d 8 00 00 00 00 00 00 FF FF
 1.895871 2  25E             Rx   d 8 00 00 02 00 00 00 00 00
 1.903295 2  1E0             Rx   d 8 00 00 00 00 00 00 00 00
 1.905899 2  777             Rx   d 1 05
 1.910288 2  1E4             Rx   d 8 00 00 00 00 01 00 00 00
 1.915115 2  4E1             Rx   d 8 00 00 00 00 00 00 FF FF
 1.923259 2  3E0             Rx   d 8 00 00 00 00 00 00 13 C0
 1.927241 2  4E0             Rx   d 8 00 00 82 00 00 00 7E 00
 1.931231 2  75E             Rx   d 1 05
 1.938062 2  762             Rx   d 1 05
 1.942266 2  1E4             Rx   d 8 00 00 00 00 01 00 00 00
 1.957322 2  1D6             Rx   d 8 00 00 00 81 00 02 01 00
 1.962255 2  3E4             Rx   d 8 00 00 00 00 00 00 13 C0
 1.969209 2  266             Rx   d 8 00 00 02 00 00 00 00 00
 1.978249 2  3E4             Rx   d 8 00 00 00 00 00 00 03 C0
 1.980089 2  3E8             Rx   d 8 03 00 00 00 00 00 03 C0
 1.989437 2  4E5             Rx   d 8 00 00 00 00 00 00 FF FF
 2.000231 2  4E8             Rx   d 8 00 00 82 00 00 00 7E 00
 2.010271 2  3E4             Rx   d 8 00 00 00 00 00 00 03 C0
 2.016238 2  4E8             Rx   d 8 00 00 82 00 00 00 7E 00
 2.021331 2  4E5             Rx   d 8 00 00 00 00 00 00 00 00
 2.033772 2  4E8             Rx   d 8 00 00 82 00 00 00 7E 00
 2.039278 2  4E0             Rx   d 8 00 00 82 00 00 00 7E 00
 2.043569 2  24A             Rx   d 8 00 00 0B 00 00 00 00 00
 2.048252 2  4E8             Rx   d 8 00 00 82 00 00 00 7E 00
 2.053681 2  75B             Rx   d 1 05
 2.059151 2  4E1             Rx   d 8 00 00 00 00 00 00 00 00
 2.066058 2  762             Rx   d 1 05
 2.069429 2  4E5             Rx   d 8 00 FF 00 00 00 00 00 00
 2.074273 2  3E4             Rx   d 8 00 00 00 00 00 00 03 C0
 2.079350 2  1E0             Rx   d 8 00 00 00 00 00 00 00 00
 2.085412 2  4E5             Rx   d 8 00 FF 00 00 00 00 00 00
 2.090247 2  3E4             Rx   d 8 00 00 00 00 00 00 13 C0
 2.092781 2  4E9             Rx   d 8 00 FF 00 00 00 00 FF FF
 2.097721 2  777             Rx   d 1 05
 2.103828 2  208             Rx   d 6 5A 00 00 00 80 80
 2.109804 2  290             Rx   d 6 13 00 04 00 00 00
 2.116453 2  25A             Rx   d 8 00 00 02 00 00 00 00 00
 2.120701 2  767             Rx   d 1 05
 2.127249 2  1E0             Rx   d 8 00 00 00 00 00 00 00 00
 2.131239 2  3E0             Rx   d 8 00 00 00 00 00 00 03 C0
 2.136223 2  1E8             Rx   d 8 00 00 00 00 00 00 00 00
 2.140747 2  4E9             Rx   d 8 00 FF 00 00 00 00 00 00
 2.147240 2  3E0             Rx   d 8 00 00 00 00 00 00 13 C0
 2.150290 2  1E4             Rx   d 8 00 00 00 00 01 00 00 00
 2.154278 2  3E4             Rx   d 8 00 00 00 00 00 00 13 C0
 2.159526 2  26E             Rx   d 8 00 00 02 80 00 00 00 00
 2.165414 2  4E5             Rx   d 8 00 00 00 00 00 00 FF FF
 2.170250 2  3E4             Rx   d 8 00 00 00 00 00 00 03 C0
 2.175256 2  1E0             Rx   d 8 00 00 00 00 00 00 00 00
 2.181391 2  4E5             Rx   d 8 00 FF 00 00 00 00 00 00
 2.186026 2  74A             Rx   d 1 05
 2.191346 2  1E0             Rx   d 8 00 00 00 00 00 00 00 00
 2.195995 2  766             Rx   d 1 05
 2.202250 2  3E4             Rx   d 8 FF FF 00 00 FF FF 01 C0
 2.206344 2  4E4             Rx   d 8 00 00 82 00 00 00 7E 00
 2.213337 2  4E5             Rx   d 8 00 00 00 00 00 00 00 00
 2.218231 2  3E4             Rx   d 8 00 00 00 00 00 00 13 C0
 2.223248 2  1E0             Rx   d 8 00 00 00 00 00 00 00 00
 2.231926 2  26E             Rx   d 8 00 00 02 80 00 00 00 00
 2.243254 2  3E0             Rx   d 8 00 00 00 00 00 00 13 C0
 2.252506 2  ErrorFrame
 2.265952 2  26A             Rx   d 8 00 00 02 00 00 00 00 00
 2.278329 2  1E4             Rx   d 8 00 00 00 00 01 00 00 00
 2.289918 2  777             Rx   d 1 05
 2.298339 2  3E4             Rx   d 8 00 00 00 00 00 00 03 C0
 2.309691 2  75B             Rx   d 1 05
 2.320102 2  252             Rx   d 8 00 00 0B 80 00 00 00 00
 2.330275 2  3E4             Rx   d 8 00 00 00 00 00 00 03 C0
 2.344964 2  1E8             Rx   d 8 00 00 00 00 01 00 00 00
 2.351260 2  1E0             Rx   d 8 00 00 00 00 00 00 00 00
 2.362763 2  26E             Rx   d 8 00 00 02 00 00 00 00 00
 2.370862 2  76F             Rx   d 1 05
 2.387255 2  3E0             Rx   d 8 00 00 00 00 00 00 03 C0
 2.395756 2  24A             Rx   d 8 00 00 0B 80 00 00 00 00
 2.405367 2  4E5             Rx   d 8 00 FF 00 00 00 00 00 00
 2.416234 2  4E8             Rx   d 8 00 00 82 00 00 00 7E 00
 2.421668 2  28F             Rx   d 6 FE FF 03 00 00 00
 2.426538 2  773             Rx   d 1 05
 2.434737 2  26A             Rx   d 8 00 00 02 00 00 00 00 00
 2.531257 2  3E0             Rx   d 8 00 00 00 00 00 00 13 C0
 2.591284 2  1E0             Rx   d 8 00 00 00 00 00 00 00 00
 2.660983 2  2DA             Rx   d 8 00 00 4F 25 63 00 32 04
 2.722033 2  252             Rx   d 8 00 00 0B 80 00 00 00 00
 2.731682 2  708             Rx   d 1 05
 2.779037 2  4E1             Rx   d 8 00 00 00 00 00 00 00 00
 2.821243 2  4E5             Rx   d 8 00 00 00 00 01 00 00 00
 2.842039 2  25A             Rx   d 8 00 00 02 80 00 00 00 00
 2.847607 2  276             Rx   d 8 00 00 02 80 00 00 00 00
 2.881351 2  24E             Rx   d 8 00 00 13 00 00 00 00 00
 2.917360 2  4E5             Rx   d 8 00 00 00 00 00 00 00 00
 2.938349 2  3E4             Rx   d 8 00 00 00 00 00 00 03 C0
 2.960297 2  4E8             Rx   d 8 00 00 82 00 00 00 7E 00
 2.997266 2  4E5             Rx   d 8 00 00 00 00 00 00 00 00
 3.036250 2  3E8             Rx   d 8 00 00 00 00 00 00 03 C0
 3.043317 2  3E0             Rx   d 8 00 00 00 00 00 00 13 C0
 3.061355 2  4E5             Rx   d 8 00 FF 00 00 00 00 00 00
 3.065945 2  25A             Rx   d 8 00 00 02 00 00 00 00 00
 3.094398 2  1E4             Rx   d 8 00 00 00 00 00 00 00 00
 3.126408 2  1E4             Rx   d 8 00 00 00 00 00 00 00 00
 3.171304 2  3E0             Rx   d 8 FE FF 00 00 00 00 13 C0
 3.193045 2  25E             Rx   d 8 00 00 02 80 00 00 00 00
 3.198125 2  276             Rx   d 8 00 00 02 80 00 00 00 00
 3.214930 2  752             Rx   d 1 05
 3.224309 2  1E8             Rx   d 8 00 00 00 00 01 00 00 00
 3.231361 2  1E0             Rx   d 8 00 00 00 00 00 00 00 00
 3.236911 2  4E5             Rx   d 8 00 FF 00 00 00 00 00 00
 3.244680 2  4E9             Rx   d 8 00 FF 00 00 00 00 FF FF
 3.252052 2  26E             Rx   d 8 00 00 02 00 00 00 00 00
 3.258364 2  3E4             Rx   d 8 00 00 00 00 00 00 03 C0
 3.264966 2  763             Rx   d 1 05
 3.276116 2  4E1             Rx   d 8 00 00 00 00 00 00 FF FF
 3.294491 2  4E4             Rx   d 8 00 00 82 00 00 00 7E 00
 3.302465 2  1E4             Rx   d 8 00 00 00 00 00 00 00 00
 3.322693 2  291             Rx   d 6 FF FF 03 00 00 00
 3.325800 2  753             Rx   d 1 05
 3.331820 2  266             Rx   d 8 00 00 02 00 00 00 00 00
 3.343378 2  1E0             Rx   d 8 00 00 00 00 00 00 00 00
 3.349267 2  4E5             Rx   d 8 00 00 00 00 00 00 FF FF
 3.363240 2  1D2             Rx   d 8 00 00 00 81 00 02 01 00
 3.367373 2  4E0             Rx   d 8 00 00 82 00 00 00 7E 00
 3.375578 2  1E0             Rx   d 8 00 00 00 00 00 00 00 00
 3.381258 2  4E5             Rx   d 8 00 FF 00 00 00 00 FF FF
 3.386378 2  3E4             Rx   d 8 00 00 00 00 00 00 03 C0
 3.391537 2  776             Rx   d 1 05
 3.394987 2  76F             Rx   d 1 05
 3.397227 2  4E5             Rx   d 8 00 00 00 00 00 00 00 00
 3.400118 2  74E             Rx   d 1 05
 3.402209 2  74A             Rx   d 1 05
 3.404292 2  3E8             Rx   d 8 00 00 00 00 00 00 13 C0
 3.406918 2  752             Rx   d 1 05
 3.410236 2  762             Rx   d 1 05
 3.411304 2  3E0             Rx   d 8 00 00 00 00 00 00 03 C0
 3.414452 2  1E4             Rx   d 8 00 00 00 00 00 00 00 00
 3.415427 2  4E0             Rx   d 8 00 00 82 00 00 00 7E 00
 3.418377 2  3E4             Rx   d 8 00 00 00 00 00 00 03 C0
 3.422498 2  4E4             Rx   d 8 00 00 82 00 00 00 7E 00
 3.429237 2  4E5             Rx   d 8 00 00 00 00 00 00 00 00
 3.432295 2  1E8             Rx   d 8 00 00 00 00 01 00 00 00
 3.434597 2  1E2             Rx   d 8 00 00 00 81 00 02 01 00
 3.437270 2  3E4             Rx   d 8 00 00 00 00 00 00 13 C0
 3.443305 2  3E0             Rx   d 8 00 00 00 00 00 00 03 C0
 3.445257 2  4E5             Rx   d 8 00 00 00 00 00 00 FF FF
 3.447433 2  4E0             Rx   d 8 00 00 82 00 00 00 7E 00
 3.449107 2  24A             Rx   d 8 00 00 0B 00 00 00 00 00
 3.452103 2  26A             Rx   d 8 00 00 02 00 00 00 00 00
 3.454499 2  4E4             Rx   d 8 00 00 82 00 00 00 7E 00
 3.456964 2  763             Rx   d 1 05
 3.458824 2  76F             Rx   d 1 05
 3.461237 2  4E5             Rx   d 8 00 00 00 00 00 00 00 00
 3.464127 2  74E             Rx   d 1 05
 3.466232 2  74A             Rx   d 1 05
 3.468750 2  4E9             Rx   d 8 00 00 00 00 00 00 01 00
 3.470946 2  752             Rx   d 1 05
 3.474256 2  80              Rx   d 0 
 3.476430 2  1CE             Rx   d 8 00 00 00 81 00 02 01 00
 3.479109 2  1EE             Rx   d 8 00 00 00 E0 00 00 00 00
 3.481615 2  290             Rx   d 6 10 00 04 00 00 00
 3.484691 2  4E9             Rx   d 8 00 FF 00 00 00 00 00 00
 3.486504 2  4E4             Rx   d 8 00 00 82 00 00 00 7E 00
 3.489115 2  24A             Rx   d 8 00 00 0B 80 00 00 00 00
 3.492144 2  26A             Rx   d 8 00 00 02 80 00 00 00 00
 3.502452 2  4E4             Rx   d 8 00 00 82 00 00 00 7E 00
 3.505783 2  777             Rx   d 1 05
 3.507315 2  3E0             Rx   d 8 01 00 00 00 00 00 03 C0
 3.518991 2  208             Rx   d 6 5A 00 00 00 80 80
 3.522231 2  ErrorFrame
 3.524502 2  1CE             Rx   d 8 0F 00 00 01 00 02 01 00
 3.525952 2  1EA             Rx   d 8 00 00 00 60 00 00 00 00
 3.532429 2  76A             Rx   d 1 05
 3.535144 2  252             Rx   d 8 00 00 0B 00 00 00 00 00
 3.538029 2  90              Rx   d 8 00 00 00 00 00 00 00 00
 3.541130 2  4E5             Rx   d 8 00 00 00 00 01 00 00 00
 3.543457 2  4E0             Rx   d 8 00 00 82 00 00 00 7E 00
 3.546411 2  3E4             Rx   d 8 00 00 00 00 00 00 03 C0
 3.548263 2  3E8             Rx   d 8 FC FF 00 00 00 00 03 C0
 3.550504 2  4E4             Rx   d 8 00 00 82 00 00 00 7E 00
 3.559416 2  4E0             Rx   d 8 00 00 82 00 00 00 7E 00
 3.562373 2  3E4             Rx   d 8 00 00 00 00 00 00 13 C0
 3.563920 2  1F6             Rx   d 8 00 00 00 60 00 00 00 00
 3.566512 2  1CA             Rx   d 8 00 00 00 01 00 02 01 00
 3.574474 2  1E4             Rx   d 8 00 00 00 00 00 00 00 00
 3.576362 2  1E8             Rx   d 8 00 00 00 00 00 00 00 00
 3.578399 2  3E4             Rx   d 8 00 00 00 00 00 00 03 C0
 3.581751 2  753             Rx   d 1 05
 3.583418 2  1E0             Rx   d 8 00 00 00 00 00 00 00 00
 3.586971 2  76F             Rx   d 1 05
 3.589252 2  4E5             Rx   d 8 00 00 00 00 00 00 00 00
 3.590051 2  772             Rx   d 1 05
 3.592148 2  74E             Rx   d 1 05
 3.594420 2  262             Rx   d 8 00 00 02 80 00 00 00 00
 3.597257 2  756             Rx   d 1 05
 3.599462 2  1E0             Rx   d 8 00 00 00 00 00 00 00 00
 3.607459 2  4E0             Rx   d 8 00 00 82 00 00 00 7E 00
 3.610404 2  3E4             Rx   d 8 00 00 00 00 00 00 03 C0
 3.614523 2  4E4             Rx   d 8 00 00 82 00 00 00 7E 00
 3.619341 2  3E0             Rx   d 8 00 00 00 00 00 00 13 C0
 3.626391 2  3E4             Rx   d 8 00 00 00 00 00 00 13 C0
 3.628730 2  4E9             Rx   d 8 00 00 00 00 00 00 00 00
 3.630959 2  1EE             Rx   d 8 00 00 00 60 00 00 00 00
 3.633671 2  4E8             Rx   d 8 00 00 82 00 00 00 7E 00
 3.639459 2  4E0             Rx   d 8 00 00 82 00 00 00 7E 00
 3.642409 2  3E4             Rx   d 8 00 00 00 00 00 00 03 C0
 3.644041 2  25E             Rx   d 8 00 00 02 00 00 00 00 00
 3.647418 2  1E0             Rx   d 8 00 00 00 00 00 00 00 00
 3.650963 2  76F             Rx   d 1 05
 3.653132 2  4E5             Rx   d 8 00 00 00 00 00 00 00 00
 3.654477 2  1E4             Rx   d 8 00 00 00 00 00 00 00 00
 3.656497 2  767             Rx   d 1 05
 3.659245 2  75E             Rx   d 1 05
 3.662136 2  76E             Rx   d 1 05
 3.664372 2  4E8             Rx   d 8 00 00 82 00 00 00 7E 00
 3.666252 2  762             Rx   d 1 05
 3.670469 2  1E4             Rx   d 8 00 00 00 00 01 00 00 00
 3.672354 2  1E8             Rx   d 8 00 00 00 00 00 00 00 00
 3.674424 2  3E4             Rx   d 8 00 00 00 00 00 00 03 C0
 3.676277 2  3E8             Rx   d 8 00 00 00 00 00 00 03 C0
 3.685482 2  256             Rx   d 8 00 00 13 80 00 00 00 00
 3.687651 2  26E             Rx   d 8 00 00 02 80 00 00 00 00
 3.690413 2  3E4             Rx   d 8 00 00 00 00 00 00 13 C0
 3.692703 2  4E9             Rx   d 8 00 00 00 00 00 00 00 00
 3.695417 2  1E0             Rx   d 8 00 00 00 00 00 00 00 00
 3.707994 2  74F             Rx   d 1 05
 3.709775 2  753             Rx   d 1 05
 3.722942 2  4E1             Rx   d 8 00 00 00 00 00 00 00 00
 3.725987 2  252             Rx   d 8 00 00 0B 00 00 00 00 00
 3.728222 2  26A             Rx   d 8 00 00 02 00 00 00 00 00
 3.733283 2  4E5             Rx   d 8 00 00 00 00 00 00 FF FF
 3.735467 2  4E0             Rx   d 8 00 00 82 00 00 00 7E 00
 3.738424 2  3E4             Rx   d 8 00 00 00 00 00 00 03 C0
 3.739793 2  4E1             Rx   d 8 00 00 00 00 00 00 00 00
 3.742529 2  4E4             Rx   d 8 00 00 82 00 00 00 7E 00
 3.752373 2  1E8             Rx   d 8 00 00 00 00 00 00 00 00
 3.754469 2  3E4             Rx   d 8 00 00 00 00 00 00 13 C0
 3.756283 2  3E8             Rx   d 8 00 00 00 00 00 00 13 C0
 3.761789 2  777             Rx   d 1 05
 3.763372 2  3E0             Rx   d 8 00 00 00 00 00 00 03 C0
 3.765692 2  266             Rx   d 8 00 00 02 80 00 00 00 00
 3.768363 2  1E8             Rx   d 8 00 00 00 00 00 00 00 00
 3.770916 2  4E1             Rx   d 8 00 00 00 00 00 00 00 00
 3.773732 2  753             Rx   d 1 05
 3.775431 2  1E0             Rx   d 8 00 00 00 00 00 00 00 00
 3.778959 2  76F             Rx   d 1 05
 3.781111 2  4E5             Rx   d 8 00 00 00 00 00 00 00 00
 3.784247 2  74E             Rx   d 1 05
 3.786251 2  74A             Rx   d 1 05
 3.788289 2  3E8             Rx   d 8 00 00 00 00 00 00 13 C0
 3.798133 2  28A             Rx   d 6 28 FD 03 00 00 00
 3.800883 2  28B             Rx   d 6 CB 02 04 00 00 00
 3.804305 2  3E8             Rx   d 8 00 00 00 00 00 00 03 C0
 3.806532 2  4E4             Rx   d 8 00 00 82 00 00 00 7E 00
 3.808404 2  4E8             Rx   d 8 00 00 82 00 00 00 7E 00
 3.813143 2  4E5             Rx   d 8 00 00 00 00 00 00 FF FF
 3.814915 2  272             Rx   d 8 00 00 02 00 00 00 00 00
 3.818416 2  3E4             Rx   d 8 00 00 00 00 00 00 13 C0
 3.820295 2  3E8             Rx   d 8 00 00 00 00 00 00 13 C0
 3.822498 2  4E4             Rx   d 8 00 00 82 00 00 00 7E 00
 3.824370 2  4E8             Rx   d 8 00 00 82 00 00 00 7E 00
 3.827353 2  3E0             Rx   d 8 00 00 00 00 00 00 03 C0
 3.829239 2  4E5             Rx   d 8 00 00 00 00 00 00 00 00
 3.830488 2  1E4             Rx   d 8 00 00 00 00 00 00 00 00
 3.834991 2  4E1             Rx   d 8 00 00 00 00 00 00 00 00
 3.837707 2  753             Rx   d 1 05
 3.840407 2  4E8             Rx   d 8 00 00 82 00 00 00 7E 00
 3.842734 2  76F             Rx   d 1 05
 3.845231 2  4E5             Rx   d 8 00 00 00 00 00 00 00 00
 3.846315 2  262             Rx   d 8 00 00 02 80 00 00 00 00
 3.849607 2  76A             Rx   d 1 05
 3.852289 2  3E8             Rx   d 8 00 00 00 00 00 00 13 C0
 3.854212 2  76E             Rx   d 1 05
 3.856360 2  4E8             Rx   d 8 00 00 82 00 00 00 7E 00
 3.859364 2  3E0             Rx   d 8 00 00 00 00 00 00 03 C0
 3.861208 2  4E5             Rx   d 8 00 00 00 00 00 00 FF FF
 3.863480 2  4E0             Rx   d 8 00 00 82 00 00 00 7E 00
 3.866421 2  3E4             Rx   d 8 00 00 00 00 00 00 03 C0
 3.868278 2  3E8             Rx   d 8 00 00 00 00 00 00 03 C0
 3.872680 2  1DA             Rx   d 8 00 00 00 81 00 01 01 00
 3.875342 2  3E0             Rx   d 8 00 00 00 00 00 00 13 C0
 3.878494 2  1E4             Rx   d 8 00 00 00 00 00 00 00 00
 3.880365 2  1E8             Rx   d 8 00 00 00 00 01 00 00 00
 3.882430 2  3E4             Rx   d 8 00 00 00 00 00 00 13 C0
 3.893109 2  4E5             Rx   d 8 00 01 00 00 00 00 FF FF
 3.894514 2  1E4             Rx   d 8 00 00 00 00 00 00 00 00
 3.896376 2  1E8             Rx   d 8 00 00 00 00 00 00 00 00
 3.898438 2  3E4             Rx   d 8 00 00 00 00 00 00 03 C0
 3.900356 2  3E8             Rx   d 8 00 00 00 00 00 00 03 C0
 3.903447 2  1E0             Rx   d 8 00 00 00 00 00 00 00 00
 3.913883 2  1EA             Rx   d 8 00 00 00 60 00 00 00 00
 3.926499 2  1E4             Rx   d 8 00 00 00 00 01 00 00 00
 3.936418 2  4E8             Rx   d 8 00 00 82 00 00 00 7E 00
 3.939384 2  3E0             Rx   d 8 00 00 00 00 00 00 13 C0
 3.941221 2  4E5             Rx   d 8 00 FF 00 00 00 00 00 00
 3.942550 2  1E4             Rx   d 8 00 00 00 00 01 00 00 00
 3.944383 2  1E8             Rx   d 8 00 00 00 00 00 00 00 00
 3.946869 2  4E1             Rx   d 8 00 00 00 00 00 00 FF FF
 3.950509 2  4E4             Rx   d 8 00 00 82 00 00 00 7E 00
 3.951448 2  1E0             Rx   d 8 00 00 00 00 00 00 00 00
 3.953572 2  777             Rx   d 1 05
 3.957372 2  4E5             Rx   d 8 00 00 00 00 00 00 FF FF
 3.958504 2  1E4             Rx   d 8 00 00 00 00 00 00 00 00
 3.959908 2  70C             Rx   d 1 05
 3.962439 2  3E4             Rx   d 8 00 00 00 00 00 00 03 C0
 3.964612 2  4E9             Rx   d 8 00 00 00 00 00 00 FF FF
 3.967457 2  1E0             Rx   d 8 00 00 00 00 00 00 00 00
 3.977616 2  76A             Rx   d 1 05
 3.980285 2  70E             Rx   d 1 05
 3.981954 2  701             Rx   d 1 05
 3.987682 2  710             Rx   d 1 05
 3.990512 2  1E4             Rx   d 8 00 00 00 00 00 00 00 00
 3.992385 2  1E8             Rx   d 8 00 00 00 00 01 00 00 00
 3.994464 2  3E4             Rx   d 8 00 00 00 00 00 00 03 C0
 3.996569 2  266             Rx   d 8 00 00 02 00 00 00 00 00
 3.999466 2  1E0             Rx   d 8 00 00 00 00 00 00 00 00
 4.003373 2  3E0             Rx   d 8 00 00 00 00 00 00 13 C0
 4.003969 2  711             Rx   d 1 05
 4.006509 2  1E4             Rx   d 8 00 00 00 00 01 00 00 00
 4.010448 2  3E4             Rx   d 8 00 00 00 00 00 00 13 C0
 4.010869 2  4E1             Rx   d 8 00 00 00 00 00 00 00 00
 4.021414 2  4E5             Rx   d 8 00 FF 00 00 00 00 00 00
 4.030037 2  80              Rx   d 0 
 4.032962 2  1E6             Rx   d 8 00 00 00 81 00 02 01 00
 4.035613 2  3E0             Rx   d 8 00 00 00 00 00 00 13 C0
 4.038108 2  772             Rx   d 1 05
 4.041631 2  76A             Rx   d 1 05
 4.044313 2  25A             Rx   d 8 00 00 02 80 00 00 00 00
 4.046220 2  24E             Rx   d 8 00 00 13 80 00 00 00 00
 4.048687 2  26A             Rx   d 8 00 00 02 80 00 00 00 00
 4.052226 2  766             Rx   d 1 05
 4.056381 2  1E8             Rx   d 8 00 00 00 00 00 00 00 00
 4.058465 2  3E4             Rx   d 8 00 00 00 00 00 00 03 C0
 4.060304 2  3E8             Rx   d 8 00 00 00 00 00 00 03 C0
 4.062573 2  4E4             Rx   d 8 00 00 82 00 00 00 7E 00
 4.067355 2  3E0             Rx   d 8 06 00 00 00 00 00 13 C0
 4.069219 2  4E5             Rx   d 8 00 FF 00 00 00 00 00 00
 4.070509 2  1E4             Rx   d 8 00 00 00 00 00 00 00 00
 4.072341 2  28A             Rx   d 6 25 FD 03 00 00 00
 4.075144 2  1D2             Rx   d 8 00 00 00 81 00 02 01 00
 4.077723 2  28E             Rx   d 6 F1 FF 03 00 00 00
 4.080551 2  4E8             Rx   d 8 00 00 82 00 00 00 7E 00
 4.083380 2  3E0             Rx   d 8 00 00 00 00 00 00 03 C0
 4.085356 2  25A             Rx   d 8 00 00 02 00 00 00 00 00
 4.088387 2  1E8             Rx   d 8 00 00 00 00 00 00 00 00
 4.096901 2  763             Rx   d 1 05
 4.098931 2  76F             Rx   d 1 05
 4.101094 2  4E5             Rx   d 8 00 00 00 00 00 00 00 00
 4.103461 2  4E0             Rx   d 8 00 00 82 00 00 00 7E 00
 4.122508 2  3E4             Rx   d 8 00 00 00 00 00 00 03 C0
 4.124500 2  3E8             Rx   d 8 00 00 00 00 00 00 03 C0
 4.127468 2  1E0             Rx   d 8 00 00 00 00 00 00 00 00
 4.130859 2  25A             Rx   d 8 00 00 02 80 00 00 00 00
 4.132305 2  24A             Rx   d 8 00 00 0B 80 00 00 00 00
 4.142532 2  4E4             Rx   d 8 00 00 82 00 00 00 7E 00
 4.144403 2  4E8             Rx   d 8 00 00 82 00 00 00 7E 00
 4.157616 2  753             Rx   d 1 05
 4.162146 2  ErrorFrame
 4.162879 2  1D6             Rx   d 8 FE FF 00 81 00 02 01 00
 4.168238 2  28E             Rx   d 6 EE FF 03 00 00 00
 4.172328 2  3E8             Rx   d 8 00 00 00 00 00 00 13 C0
 4.173975 2  24A             Rx   d 8 00 00 0B 00 00 00 00 00
 4.176889 2  26A             Rx   d 8 00 00 02 00 00 00 00 00
 4.179414 2  3E0             Rx   d 8 00 00 00 00 00 00 03 C0
 4.182542 2  1E4             Rx   d 8 00 00 00 00 01 00 00 00
 4.184415 2  1E8             Rx   d 8 00 00 00 00 01 00 00 00
 4.186474 2  3E4             Rx   d 8 00 00 00 00 00 00 03 C0
 4.188333 2  3E8             Rx   d 8 02 00 00 00 00 00 03 C0
 4.190583 2  4E4             Rx   d 8 00 00 82 00 00 00 7E 00
 4.195402 2  3E0             Rx   d 8 00 00 00 00 00 00 13 C0
 4.197085 2  4E5             Rx   d 8 00 00 00 00 00 00 00 00
 4.198527 2  1E4             Rx   d 8 00 00 00 00 00 00 00 00
 4.199475 2  4E0             Rx   d 8 00 00 82 00 00 00 7E 00
 4.201748 2  70B             Rx   d 1 05
 4.204335 2  3E8             Rx   d 8 02 00 00 00 00 00 13 C0
 4.206543 2  4E4             Rx   d 8 00 00 82 00 00 00 7E 00
 4.208398 2  4E8             Rx   d 8 00 00 82 00 00 00 7E 00
 4.211397 2  3E0             Rx   d 8 00 00 00 00 00 00 03 C0
 4.213118 2  4E5             Rx   d 8 00 FF 00 00 00 00 FF FF
 4.215509 2  4E0             Rx   d 8 00 00 82 00 00 00 7E 00
 4.218477 2  3E4             Rx   d 8 00 00 00 00 00 00 03 C0
 4.219946 2  74F             Rx   d 1 05
 4.221748 2  753             Rx   d 1 05
 4.232244 2  74E             Rx   d 1 05
 4.234256 2  74A             Rx   d 1 05
 4.236348 2  1CE             Rx   d 8 FF FF 00 01 00 02 01 00
 4.242322 2  762             Rx   d 1 05
 4.244243 2  766             Rx   d 1 05
 4.246540 2  1E4             Rx   d 8 00 00 00 00 01 00 00 00
 4.249999 2  266             Rx   d 8 00 00 02 80 00 00 00 00
 4.254607 2  4E4             Rx   d 8 00 00 82 00 00 00 7E 00
 4.255478 2  1E0             Rx   d 8 00 00 00 00 FF 00 00 00
 4.259420 2  3E0             Rx   d 8 00 00 00 00 00 00 13 C0
 4.260825 2  4E5             Rx   d 8 00 00 00 00 00 00 FF FF
 4.262541 2  1E4             Rx   d 8 00 00 00 00 00 00 00 00
 4.264415 2  1E8             Rx   d 8 00 00 00 00 01 00 00 00
 4.266532 2  3E4             Rx   d 8 00 00 00 00 00 00 13 C0
 4.268344 2  3E8             Rx   d 8 FE FF 00 00 00 00 13 C0
 4.270358 2  26A             Rx   d 8 00 00 02 80 00 00 00 00
 4.273758 2  777             Rx   d 1 05
 4.275398 2  3E0             Rx   d 8 FB FF 00 00 00 00 03 C0
 4.277095 2  4E5             Rx   d 8 00 00 00 00 00 00 00 00
 4.279539 2  4E0             Rx   d 8 00 00 82 00 00 00 7E 00
 4.282370 2  773             Rx   d 1 05
 4.284226 2  757             Rx   d 1 05
 4.286580 2  4E4             Rx   d 8 00 00 82 00 00 00 7E 00
 4.288929 2  763             Rx   d 1 05
 4.290865 2  76F             Rx   d 1 05
 4.294130 2  28A             Rx   d 6 26 FD 03 00 00 00
 4.306372 2  762             Rx   d 1 05
 4.307406 2  3E0             Rx   d 8 00 00 00 00 00 00 03 C0
 4.308975 2  24A             Rx   d 8 00 00 0B 00 00 00 00 00
 4.312243 2  26A             Rx   d 8 00 00 02 00 00 00 00 00
 4.314577 2  3E4             Rx   d 8 00 00 00 00 00 00 03 C0
 4.323399 2  3E0             Rx   d 8 00 00 00 00 00 00 13 C0
 4.328446 2  1E8             Rx   d 8 00 00 00 00 00 00 00 00
 4.342633 2  1E2             Rx   d 8 00 00 00 81 00 02 01 00
 4.345035 2  28F             Rx   d 6 FD FF 03 00 00 00
 4.347342 2  4E1             Rx   d 8 00 00 00 00 00 00 FF FF
 4.350242 2  76B             Rx   d 1 05
 4.355657 2  24E             Rx   d 8 00 00 13 80 00 00 00 00
 4.358124 2  26A             Rx   d 8 00 00 02 80 00 00 00 00
 4.360251 2  74E             Rx   d 1 05
 4.362890 2  4E1             Rx   d 8 00 00 00 00 00 00 FF FF
 4.365339 2  756             Rx   d 1 05
 4.367489 2  1E0             Rx   d 8 00 00 00 00 00 00 00 00
 4.381665 2  80              Rx   d 0 
 4.384045 2  188             Rx   d 8 88 00 01 00 00 01 00 00
 4.386625 2  28D             Rx   d 6 EC 02 04 00 00 00
 4.389267 2  4E5             Rx   d 8 00 00 00 00 00 00 00 00
 4.394507 2  3E4             Rx   d 8 00 00 00 00 00 00 13 C0
 4.395854 2  25E             Rx   d 8 00 00 02 00 00 00 00 00
 4.398562 2  4E4             Rx   d 8 00 00 82 00 00 00 7E 00
 4.401783 2  777             Rx   d 1 05
 4.403421 2  3E0             Rx   d 8 00 00 00 00 00 00 03 C0
 4.406556 2  1E4             Rx   d 8 00 00 00 00 00 00 00 00
 4.407541 2  4E0             Rx   d 8 00 00 82 00 00 00 7E 00
 4.410335 2  773             Rx   d 1 05
 4.412406 2  3E8             Rx   d 8 FD FF 00 00 00 00 03 C0
 4.415500 2  1E0             Rx   d 8 00 00 00 00 00 00 00 00
 4.418901 2  76F             Rx   d 1 05
 4.421274 2  4E5             Rx   d 8 00 00 00 00 00 00 00 00
 4.429847 2  1EA             Rx   d 8 00 00 00 60 00 00 00 00
 4.432632 2  1DA             Rx   d 8 00 00 00 01 00 01 01 00
 4.435238 2  290             Rx   d 6 12 00 04 00 00 00
 4.438565 2  1E4             Rx   d 8 00 00 00 00 01 00 00 00
 4.440418 2  1E8             Rx   d 8 00 00 00 00 00 00 00 00
 4.442497 2  3E4             Rx   d 8 00 00 00 00 00 00 03 C0
 4.444877 2  252             Rx   d 8 00 00 0B 80 00 00 00 00
 4.447014 2  26A             Rx   d 8 00 00 02 80 00 00 00 00
 4.451425 2  3E0             Rx   d 8 00 00 00 00 00 00 13 C0
 4.453068 2  4E5             Rx   d 8 00 00 00 00 00 00 FF FF
 4.454566 2  1E4             Rx   d 8 00 00 00 00 00 00 00 00
 4.458525 2  3E4             Rx   d 8 00 00 00 00 FF FF 11 C0
 4.460708 2  4E9             Rx   d 8 00 FF 00 00 00 00 00 00
 4.462569 2  4E4             Rx   d 8 00 00 82 00 00 00 7E 00
 4.465662 2  777             Rx   d 1 05
 4.467443 2  3E0             Rx   d 8 FD FF 00 00 00 00 03 C0
 4.469095 2  4E5             Rx   d 8 00 00 00 00 00 00 00 00
 4.475365 2  4E1             Rx   d 8 00 00 00 00 00 00 00 00
 4.477639 2  753             Rx   d 1 05
 4.480861 2  262             Rx   d 8 00 00 02 00 00 00 00 00
 4.483439 2  3E0             Rx   d 8 00 00 00 00 00 00 13 C0
 4.485710 2  75B             Rx   d 1 05
 4.488286 2  74E             Rx   d 1 05
 4.490274 2  74A             Rx   d 1 05
 4.494234 2  76E             Rx   d 1 05
 4.496450 2  4E8             Rx   d 8 00 00 82 00 00 00 7E 00
 4.498361 2  762             Rx   d 1 05
 4.507278 2  1D2             Rx   d 8 F9 FF 00 81 00 02 01 00
 4.509822 2  291             Rx   d 6 01 00 04 00 00 00
 4.512488 2  4E8             Rx   d 8 00 00 82 00 00 00 7E 00
 4.515436 2  3E0             Rx   d 8 00 00 00 00 00 00 13 C0
 4.517051 2  4E5             Rx   d 8 00 00 00 00 00 00 FF FF
 4.520449 2  1E8             Rx   d 8 00 00 00 00 00 00 00 00
 4.527510 2  1E0             Rx   d 8 00 00 00 00 00 00 00 00
 4.529514 2  777             Rx   d 1 05
 4.532817 2  4E5             Rx   d 8 00 00 00 00 00 00 FF FF
 4.534600 2  1E4             Rx   d 8 00 00 00 00 00 00 00 00
 4.539612 2  4E1             Rx   d 8 00 00 00 00 00 00 00 00
 4.553144 2  1E8             Rx   d 8 00 00 00 00 00 00 00 00
 4.556370 2  3E8             Rx   d 8 FD FF 00 00 00 00 13 C0
 4.558562 2  4E4             Rx   d 8 00 00 82 00 00 00 7E 00
 4.561984 2  25A             Rx   d 8 00 00 02 00 00 00 00 00
 4.562709 2  262             Rx   d 8 00 00 02 00 00 00 00 00
 4.566364 2  26A             Rx   d 8 00 00 02 00 00 00 00 00
 4.568442 2  1E8             Rx   d 8 00 00 00 00 01 00 00 00
 4.572602 2  4E9             Rx   d 8 00 00 00 00 00 00 FF FF
 4.579458 2  3E0             Rx   d 8 00 00 00 00 00 00 13 C0
 4.592450 2  4E8             Rx   d 8 00 00 82 00 00 00 7E 00
 4.595444 2  3E0             Rx   d 8 00 00 00 00 00 00 03 C0
 4.597072 2  4E5             Rx   d 8 00 00 00 00 00 00 FF FF
 4.598579 2  1E4             Rx   d 8 00 00 00 00 00 00 00 00
 4.602120 2  25A             Rx   d 8 00 00 02 80 00 00 00 00
 4.602520 2  25E             Rx   d 8 00 00 02 80 00 00 00 00
 4.613579 2  75B             Rx   d 1 05
 4.615548 2  4E0             Rx   d 8 00 00 82 00 00 00 7E 00
 4.618271 2  74A             Rx   d 1 05
 4.623520 2  1E0             Rx   d 8 00 00 00 00 FF 01 00 00
 4.626380 2  762             Rx   d 1 05
 4.636603 2  1CE             Rx   d 8 00 00 00 81 00 02 01 00
 4.639051 2  4E4             Rx   d 8 00 00 82 00 00 00 7E 00
 4.643445 2  3E0             Rx   d 8 FF FF 00 00 00 00 13 C0
 4.645132 2  4E5             Rx   d 8 00 FF 00 00 00 00 00 00
 4.646583 2  1E4             Rx   d 8 00 00 00 00 00 00 00 00
 4.648269 2  25E             Rx   d 8 00 00 02 00 00 00 00 00
 4.657731 2  777             Rx   d 1 05
 4.662594 2  1E4             Rx   d 8 00 00 00 00 00 00 00 00
 4.664466 2  1E8             Rx   d 8 00 00 00 00 00 00 00 00
 4.666747 2  70D             Rx   d 1 05
 4.669655 2  753             Rx   d 1 05
 4.671508 2  1E0             Rx   d 8 00 00 00 00 FF 00 00 00
 4.674677 2  76F             Rx   d 1 05
 4.677071 2  4E5             Rx   d 8 00 00 00 00 00 00 00 00
 4.678251 2  772             Rx   d 1 05
 4.681763 2  76A             Rx   d 1 05
 4.683295 2  4E1             Rx   d 8 00 00 00 00 00 00 00 00
 4.685394 2  262             Rx   d 8 00 00 02 80 00 00 00 00
 4.688463 2  4E8             Rx   d 8 00 00 82 00 00 00 7E 00
 4.691454 2  3E0             Rx   d 8 00 00 00 00 00 00 03 C0
 4.694601 2  1E4             Rx   d 8 00 00 00 00 00 00 00 00
 4.696457 2  1E8             Rx   d 8 00 00 00 00 00 00 00 00
 4.698536 2  3E4             Rx   d 8 00 00 00 00 00 00 03 C0
 4.700386 2  3E8             Rx   d 8 00 00 00 00 00 00 03 C0
 4.710493 2  1CA             Rx   d 8 00 00 00 81 00 02 01 00
 4.713229 2  2E2             Rx   d 8 00 00 4F 25 63 00 2A 04
 4.715903 2  291             Rx   d 6 00 00 04 00 00 00
 4.718584 2  4E4             Rx   d 8 00 00 82 00 00 00 7E 00
 4.721682 2  777             Rx   d 1 05
 4.724322 2  24A             Rx   d 8 00 00 0B 00 00 00 00 00
 4.735677 2  776             Rx   d 1 05
 4.738919 2  76F             Rx   d 1 05
 4.741022 2  4E5             Rx   d 8 00 00 00 00 00 00 FF FF
 4.744273 2  74E             Rx   d 1 05
 4.746290 2  74A             Rx   d 1 05
 4.748399 2  3E8             Rx   d 8 00 00 00 00 00 00 13 C0
 4.751083 2  752             Rx   d 1 05
 4.754398 2  762             Rx   d 1 05
 4.756289 2  766             Rx   d 1 05
 4.758641 2  1E4             Rx   d 8 00 00 00 00 00 00 00 00
 4.760462 2  1E8             Rx   d 8 00 00 00 00 00 00 00 00
 4.762534 2  3E4             Rx   d 8 00 00 00 00 00 00 03 C0
 4.764630 2  4E9             Rx   d 8 00 00 00 00 00 00 FF FF
 4.766649 2  4E4             Rx   d 8 00 00 82 00 00 00 7E 00
 4.771453 2  3E0             Rx   d 8 00 00 00 00 00 00 13 C0
 4.782061 2  2D6             Rx   d 8 00 00 54 28 64 00 29 04
 4.784513 2  1CE             Rx   d 8 00 00 00 81 00 02 01 00
 4.787520 2  3E0             Rx   d 8 01 00 00 00 00 00 03 C0
 4.790607 2  1E4             Rx   d 8 00 00 00 00 00 00 00 00
 4.792459 2  1E8             Rx   d 8 00 00 00 00 00 00 00 00
 4.797246 2  24A             Rx   d 8 00 00 0B 80 00 00 00 00
 4.799584 2  1E0             Rx   d 8 00 00 00 00 00 00 00 00
 4.802854 2  76F             Rx   d 1 05
 4.805036 2  4E5             Rx   d 8 00 FF 00 00 00 00 00 00
 4.806698 2  75F             Rx   d 1 05
 4.809717 2  76A             Rx   d 1 05
 4.812219 2  288             Rx   d 8 49 52 00 26 05 24 00 00
 4.821007 2  4E5             Rx   d 8 00 00 00 00 00 00 00 00
 4.824244 2  80              Rx   d 0 
 4.826690 2  1E2             Rx   d 8 00 00 00 81 00 02 01 00
 4.831535 2  1E0             Rx   d 8 00 00 00 00 00 00 00 00
 4.837034 2  4E5             Rx   d 8 00 00 00 00 00 00 00 00
 4.838637 2  1E4             Rx   d 8 00 00 00 00 00 00 00 00
 4.840466 2  1E8             Rx   d 8 00 00 00 00 01 00 00 00
 4.843273 2  4E1             Rx   d 8 00 00 00 00 00 00 FF FF
 4.846612 2  4E4             Rx   d 8 00 00 82 00 00 00 7E 00
 4.847546 2  1E0             Rx   d 8 00 00 00 00 00 00 00 00
 4.849677 2  777             Rx   d 1 05
 4.851478 2  3E0             Rx   d 8 00 00 00 00 00 00 03 C0
 4.854627 2  1E4             Rx   d 8 00 00 00 00 01 00 00 00
 4.855837 2  262             Rx   d 8 00 00 02 00 00 00 00 00
 4.858280 2  773             Rx   d 1 05
 4.860713 2  3E8             Rx   d 8 00 00 00 00 00 00 03 C0
 4.863558 2  1E0             Rx   d 8 00 00 00 00 00 01 00 00
 4.866849 2  76F             Rx   d 1 05
 4.869227 2  4E5             Rx   d 8 00 00 00 00 00 00 FF FF
 4.878366 2  76E             Rx   d 1 05
 4.901017 2  4E5             Rx   d 8 00 00 00 00 FF 00 00 00
 4.951601 2  4E0             Rx   d 8 00 00 82 00 00 00 7E 00
 4.963487 2  3E0             Rx   d 8 00 00 00 00 00 00 13 C0
 4.979586 2  1DE             Rx   d 8 00 00 00 81 00 01 01 00
 4.986291 2  773             Rx   d 1 05
 4.987894 2  74F             Rx   d 1 05
 4.990230 2  76B             Rx   d 1 05
 4.993016 2  266             Rx   d 8 00 00 02 80 00 00 00 00
 4.996246 2  26A             Rx   d 8 00 00 02 80 00 00 00 00
 4.998257 2  772             Rx   d 1 05
 5.000542 2  1E8             Rx   d 8 00 00 00 00 01 00 00 00
 5.003305 2  4E1             Rx   d 8 00 00 00 00 00 00 FF FF
 5.005414 2  756             Rx   d 1 05
 5.008487 2  4E8             Rx   d 8 00 00 82 00 00 00 7E 00
 5.010426 2  762             Rx   d 1 05
 5.012286 2  766             Rx   d 1 05
 5.015615 2  4E0             Rx   d 8 00 00 82 00 00 00 7E 00
 5.018572 2  3E4             Rx   d 8 00 00 00 00 00 00 03 C0
 5.020420 2  3E8             Rx   d 8 00 00 00 00 00 00 03 C0
 5.022689 2  4E4             Rx   d 8 00 00 82 00 00 00 7E 00
 5.024559 2  4E8             Rx   d 8 00 00 82 00 00 00 7E 00
 5.027494 2  3E0             Rx   d 8 00 00 00 00 00 00 13 C0
 5.029088 2  4E5             Rx   d 8 00 00 00 00 00 00 00 00
 5.030631 2  1E4             Rx   d 8 00 00 00 00 00 00 00 00
 5.032494 2  1E8             Rx   d 8 00 00 00 00 00 00 00 00
 5.036427 2  3E8             Rx   d 8 00 00 00 00 00 00 13 C0
 5.038634 2  4E4             Rx   d 8 00 00 82 00 00 00 7E 00
 5.040493 2  4E8             Rx   d 8 00 00 82 00 00 00 7E 00
 5.053058 2  80              Rx   d 0 
 5.063566 2  4E0             Rx   d 8 00 00 82 00 00 00 7E 00
 5.069011 2  252             Rx   d 8 00 00 0B 00 00 00 00 00
 5.074431 2  762             Rx   d 1 05
 5.079624 2  4E0             Rx   d 8 00 00 82 00 00 00 7E 00
 5.084440 2  3E8             Rx   d 8 00 00 00 00 00 00 03 C0
 5.107342 2  25A             Rx   d 8 00 00 02 80 00 00 00 00
 5.117584 2  753             Rx   d 1 05
 5.135107 2  752             Rx   d 1 05
 5.166636 2  4E4             Rx   d 8 00 00 82 00 00 00 7E 00
 5.187975 2  24A             Rx   d 8 00 00 0B 80 00 00 00 00
 5.194352 2  74A             Rx   d 1 05
 5.204239 2  711             Rx   d 1 05
 5.214707 2  4E4             Rx   d 8 00 00 82 00 00 00 7E 00
 5.216673 2  1E6             Rx   d 8 00 00 00 01 00 01 01 00
 5.226608 2  3E4             Rx   d 8 00 00 00 00 00 00 13 C0
 5.228446 2  3E8             Rx   d 8 00 00 00 00 00 00 13 C0
 5.230663 2  4E4             Rx   d 8 00 00 82 00 00 00 7E 00
 5.240514 2  1E8             Rx   d 8 00 00 00 00 01 00 00 00
 5.243249 2  4E1             Rx   d 8 00 00 00 00 00 00 FF FF
 5.248787 2  4E8             Rx   d 8 00 00 82 00 00 00 7E 00
 5.257817 2  76A             Rx   d 1 05
 5.262298 2  76E             Rx   d 1 05
 5.270660 2  1E4             Rx   d 8 00 00 00 00 00 00 00 00
 5.282062 2  1EA             Rx   d 8 00 00 00 60 00 00 00 00
 5.296861 2  24A             Rx   d 8 00 00 0B 80 00 00 00 00
 5.302658 2  1E4             Rx   d 8 00 00 00 00 00 00 00 00
 5.306250 2  773             Rx   d 1 05
 5.307257 2  4E1             Rx   d 8 00 00 00 00 00 00 00 00
 5.309590 2  753             Rx   d 1 05
 5.325450 2  756             Rx   d 1 05
 5.327600 2  1E0             Rx   d 8 00 00 00 00 00 00 00 00
 5.339506 2  4E1             Rx   d 8 00 00 00 00 00 00 00 00
 5.342723 2  4E4             Rx   d 8 00 00 82 00 00 00 7E 00
 5.344587 2  4E8             Rx   d 8 00 00 82 00 00 00 7E 00
 5.370257 2  773             Rx   d 1 05
 5.388694 2  4E9             Rx   d 8 00 00 00 00 00 00 FF FF
 5.423613 2  1E0             Rx   d 8 00 00 00 00 00 00 00 00
 5.450328 2  2D6             Rx   d 8 00 00 54 28 64 00 28 04
 5.471622 2  1E0             Rx   d 8 00 00 00 00 00 00 00 00
 5.475543 2  3E0             Rx   d 8 00 00 00 00 00 00 13 C0
 5.491547 2  3E0             Rx   d 8 00 00 00 00 00 00 03 C0
 5.495666 2  4E0             Rx   d 8 00 00 82 00 00 00 7E 00
 5.516487 2  3E8             Rx   d 8 00 00 00 00 00 00 13 C0
 5.520648 2  1CE             Rx   d 8 01 00 00 81 00 02 01 00
 5.546631 2  3E4             Rx   d 8 00 00 00 00 00 00 13 C0
 5.565304 2  208             Rx   d 6 5A 00 00 00 80 80
 5.573009 2  4E5             Rx   d 8 00 FF 00 00 00 00 FF FF
 5.576284 2  767             Rx   d 1 05
 5.592539 2  1E8             Rx   d 8 00 00 00 00 00 00 00 00
 5.604952 2  4E5             Rx   d 8 00 FF 00 00 00 00 00 00
 5.624565 2  1E8             Rx   d 8 00 00 00 00 00 00 00 00
 5.632598 2  4E8             Rx   d 8 00 00 82 00 00 00 7E 00
 5.636965 2  4E5             Rx   d 8 00 00 00 00 00 00 FF FF
 5.643257 2  4E1             Rx   d 8 00 00 00 00 00 00 00 00
 5.648553 2  4E8             Rx   d 8 00 00 82 00 00 00 7E 00
 5.654690 2  1E4             Rx   d 8 00 00 00 00 00 00 00 00
 5.662747 2  4E4             Rx   d 8 00 00 82 00 00 00 7E 00
 5.678688 2  4E4             Rx   d 8 00 00 82 00 00 00 7E 00
 5.687621 2  290             Rx   d 6 0E 00 04 00 00 00
 5.695775 2  1E0             Rx   d 8 00 00 00 00 00 00 00 00
 5.705817 2  76A             Rx   d 1 05
 5.706644 2  3E4             Rx   d 8 00 00 00 00 00 00 13 C0
 5.714508 2  762             Rx   d 1 05
 5.725548 2  1CE             Rx   d 8 00 00 00 81 00 02 01 00
 5.727386 2  1EE             Rx   d 8 00 00 00 E0 00 00 00 00
 5.742772 2  4E4             Rx   d 8 00 00 82 00 00 00 7E 00
 5.751691 2  4E0             Rx   d 8 00 00 82 00 00 00 7E 00
 5.759646 2  1E0             Rx   d 8 00 00 00 00 00 01 00 00
 5.767629 2  4E0             Rx   d 8 00 00 82 00 00 00 7E 00
 5.790776 2  4E4             Rx   d 8 00 00 82 00 00 00 7E 00
 5.795575 2  3E0             Rx   d 8 00 00 00 00 00 00 13 C0
 5.800219 2  24E             Rx   d 8 00 00 13 00 00 00 00 00
 5.806714 2  4E4             Rx   d 8 00 00 82 00 00 00 7E 00
 5.811578 2  3E0             Rx   d 8 00 00 00 00 00 00 03 C0
 5.816620 2  1E8             Rx   d 8 00 00 00 00 00 00 00 00
 5.826718 2  76F             Rx   d 1 05
 5.836725 2  3E8             Rx   d 8 00 00 00 00 00 00 13 C0
 5.841877 2  262             Rx   d 8 00 00 02 80 00 00 00 00
 5.848575 2  1E8             Rx   d 8 00 00 00 00 00 00 00 00
 5.854837 2  4E4             Rx   d 8 00 00 82 00 00 00 7E 00
 5.859596 2  3E0             Rx   d 8 03 00 00 00 00 00 13 C0
 5.863652 2  4E0             Rx   d 8 00 00 82 00 00 00 7E 00
 5.876006 2  208             Rx   d 6 5A 00 00 00 80 80
 5.883879 2  74F             Rx   d 1 05
 5.892216 2  252             Rx   d 8 00 00 0B 00 00 00 00 00
 5.897925 2  76A             Rx   d 1 05
 5.901554 2  756             Rx   d 1 05
 5.908386 2  766             Rx   d 1 05
 5.914690 2  3E4             Rx   d 8 00 00 00 00 00 00 03 C0
 5.918780 2  4E4             Rx   d 8 00 00 82 00 00 00 7E 00
 5.923589 2  3E0             Rx   d 8 00 00 00 00 00 00 13 C0
 5.930670 2  3E4             Rx   d 8 00 00 00 00 00 00 13 C0
 5.934748 2  4E4             Rx   d 8 00 00 82 00 00 00 7E 00
 5.939593 2  3E0             Rx   d 8 00 00 00 00 00 00 03 C0
 5.943035 2  208             Rx   d 6 5A 00 00 00 80 80
 5.954758 2  76F             Rx   d 1 05
 5.962519 2  272             Rx   d 8 00 00 02 80 00 00 00 00
 5.966777 2  4E4             Rx   d 8 00 00 82 00 00 00 7E 00
 5.972956 2  4E5             Rx   d 8 00 00 00 00 00 00 00 00
 5.990720 2  1CA             Rx   d 8 FB FF 00 81 00 02 01 00
 6.000596 2  4E8             Rx   d 8 00 00 82 00 00 00 7E 00
 6.007736 2  4E0             Rx   d 8 00 00 82 00 00 00 7E 00
 6.014070 2  76B             Rx   d 1 05
 6.020926 2  4E5             Rx   d 8 00 00 00 00 00 00 FF FF
 6.034250 2  2D6             Rx   d 8 00 00 54 28 64 00 28 04
 6.042690 2  3E4             Rx   d 8 FF FF 00 00 00 00 03 C0
 6.047649 2  256             Rx   d 8 00 00 13 80 00 00 00 00
 6.054765 2  1E4             Rx   d 8 00 00 00 00 00 00 00 00
 6.058681 2  3E4             Rx   d 8 00 00 00 00 00 00 13 C0
 6.065381 2  777             Rx   d 1 05
 6.077455 2  753             Rx   d 1 05
 6.086072 2  290             Rx   d 6 11 00 04 00 00 00
 6.090420 2  4E1             Rx   d 8 00 00 00 00 00 00 00 00
 6.096611 2  4E8             Rx   d 8 00 00 82 00 00 00 7E 00
 6.103728 2  4E0             Rx   d 8 00 00 82 00 00 00 7E 00
 6.108494 2  4E9             Rx   d 8 00 FF 00 00 00 00 01 00
 6.112653 2  4E8             Rx   d 8 00 00 82 00 00 00 7E 00
 6.120656 2  1E8             Rx   d 8 00 00 00 00 01 00 00 00
 6.128613 2  4E8             Rx   d 8 00 00 82 00 00 00 7E 00
 6.152666 2  1E8             Rx   d 8 00 00 00 00 00 00 00 00
 6.169024 2  1DA             Rx   d 8 00 00 00 01 00 01 01 00
 6.188514 2  4E9             Rx   d 8 00 00 00 00 00 00 FF FF
 6.195663 2  3E0             Rx   d 8 00 00 00 00 00 00 03 C0
 6.207707 2  1E0             Rx   d 8 00 00 00 00 00 00 00 00
 6.212912 2  4E5             Rx   d 8 00 FF 00 00 00 00 00 00
 6.224624 2  4E8             Rx   d 8 00 00 82 00 00 00 7E 00
 6.231748 2  4E0             Rx   d 8 00 00 82 00 00 00 7E 00
 6.238814 2  4E4             Rx   d 8 00 00 82 00 00 00 7E 00
 6.254700 2  28C             Rx   d 6 F0 FC 03 00 00 00
 6.265476 2  24E             Rx   d 8 00 00 13 00 00 00 00 00
 6.274701 2  76F             Rx   d 1 05
 6.278586 2  75F             Rx   d 1 05
 6.284490 2  4E9             Rx   d 8 00 00 00 00 00 00 00 00
 6.290558 2  762             Rx   d 1 05
 6.294796 2  1E4             Rx   d 8 00 00 00 00 01 00 00 00
 6.300324 2  25A             Rx   d 8 00 00 02 80 00 00 00 00
 6.304705 2  4E8             Rx   d 8 00 00 82 00 00 00 7E 00
 6.308956 2  4E5             Rx   d 8 00 FF 00 00 00 00 FF FF
 6.312625 2  1E8             Rx   d 8 00 00 00 00 00 00 00 00
 6.318791 2  4E4             Rx   d 8 00 00 82 00 00 00 7E 00
 6.322850 2  28A             Rx   d 6 26 FD 03 00 00 00
 6.330224 2  773             Rx   d 1 05
 6.337010 2  266             Rx   d 8 00 00 02 00 00 00 00 00
 6.342386 2  772             Rx   d 1 05
 6.346460 2  74A             Rx   d 1 05
 6.351253 2  752             Rx   d 1 05
 6.355641 2  3E0             Rx   d 8 00 00 00 00 00 00 03 C0
 6.360634 2  1E8             Rx   d 8 00 00 00 00 00 00 00 00
 6.372905 2  4E5             Rx   d 8 00 00 00 00 00 00 00 00
 6.378271 2  26A             Rx   d 8 00 00 02 80 00 00 00 00
 6.382788 2  4E4             Rx   d 8 00 00 82 00 00 00 7E 00
 6.387652 2  3E0             Rx   d 8 01 00 00 00 00 00 03 C0
 6.392251 2  188             Rx   d 8 88 00 01 00 00 01 00 00
 6.411495 2  75E             Rx   d 1 05
 6.422797 2  1E4             Rx   d 8 00 00 00 00 01 00 00 00
 6.431731 2  1E0             Rx   d 8 00 00 00 00 00 00 00 00
 6.446787 2  4E4             Rx   d 8 00 00 82 00 00 00 7E 00
 6.456621 2  1E8             Rx   d 8 00 00 00 00 00 00 00 00
 6.464700 2  4E8             Rx   d 8 00 00 82 00 00 00 7E 00
 6.471717 2  4E0             Rx   d 8 00 00 82 00 00 00 7E 00
 6.484462 2  766             Rx   d 1 05
 6.490732 2  3E4             Rx   d 8 00 00 00 00 00 00 03 C0
 6.495740 2  1E0             Rx   d 8 00 00 00 00 00 00 00 00
 6.509096 2  1DA             Rx   d 8 02 00 00 01 00 01 01 00
 6.515661 2  3E0             Rx   d 8 00 00 00 00 00 00 03 C0
 6.518808 2  1E4             Rx   d 8 00 00 00 00 01 00 00 00
 6.526033 2  76B             Rx   d 1 05
 6.531657 2  3E0             Rx   d 8 00 00 00 00 00 00 13 C0
 6.535738 2  4E0             Rx   d 8 00 00 82 00 00 00 7E 00
 6.540400 2  4E9             Rx   d 8 00 FF 00 00 00 00 00 00
 6.552650 2  1E8             Rx   d 8 00 00 00 00 01 00 00 00
 6.558839 2  4E4             Rx   d 8 00 00 82 00 00 00 7E 00
 6.563656 2  3E0             Rx   d 8 02 00 00 00 00 00 13 C0
 6.576640 2  4E8             Rx   d 8 00 00 82 00 00 00 7E 00
 6.581089 2  1DA             Rx   d 8 00 00 00 81 00 01 01 00
 6.590863 2  4E4             Rx   d 8 00 00 82 00 00 00 7E 00
 6.595663 2  3E0             Rx   d 8 FA FF 00 00 00 00 13 C0
 6.600469 2  74E             Rx   d 1 05
 6.610841 2  762             Rx   d 1 05
 6.630821 2  1E4             Rx   d 8 00 00 00 00 01 00 00 00
 6.643044 2  188             Rx   d 8 88 00 01 00 00 01 00 00
 6.646811 2  1E4             Rx   d 8 00 00 00 00 00 00 00 00
 6.659774 2  1DE             Rx   d 8 FF FF 00 81 00 02 01 00
 6.669612 2  756             Rx   d 1 05
 6.673925 2  266             Rx   d 8 00 00 02 80 00 00 00 00
 6.680683 2  1E8             Rx   d 8 00 00 00 00 00 00 00 00
 6.686868 2  4E4             Rx   d 8 00 00 82 00 00 00 7E 00
 6.691672 2  3E0             Rx   d 8 00 00 00 00 00 00 13 C0
 6.694838 2  1E4             Rx   d 8 00 00 00 00 01 00 00 00
 6.706904 2  80              Rx   d 0 
 6.710720 2  1CA             Rx   d 8 00 00 00 81 00 02 01 00
 6.719770 2  1E0             Rx   d 8 00 00 00 00 00 00 00 00
 6.724944 2  4E5             Rx   d 8 00 00 00 00 00 00 FF FF
 6.729946 2  76A             Rx   d 1 05
 6.734463 2  76E             Rx   d 1 05
 6.739698 2  3E0             Rx   d 8 04 00 00 00 FF FF 01 C0
 6.750688 2  1CA             Rx   d 8 00 00 00 01 00 02 01 00
 6.756856 2  4E5             Rx   d 8 00 00 00 00 00 00 00 00
 6.771682 2  3E0             Rx   d 8 FC FF 00 00 00 00 03 C0
 6.782889 2  4E4             Rx   d 8 00 00 82 00 00 00 7E 00
 6.806320 2  25A             Rx   d 8 00 00 02 00 00 00 00 00
 6.816019 2  388             Rx   d 8 00 00 00 50 27 00 7A 04
 6.838847 2  1E4             Rx   d 8 00 00 00 00 00 00 00 00
 6.850078 2  26A             Rx   d 8 00 00 02 80 00 00 00 00
 6.857968 2  76A             Rx   d 1 05
 6.866635 2  762             Rx   d 1 05
 6.881278 2  1E6             Rx   d 8 00 00 00 01 00 02 01 00
 6.896755 2  4E8             Rx   d 8 00 00 82 00 00 00 7E 00
 6.906128 2  773             Rx   d 1 05
 6.915706 2  3E0             Rx   d 8 FF FF 00 00 FF FF 11 C0
 6.925634 2  756             Rx   d 1 05
 6.933102 2  26A             Rx   d 8 00 00 02 80 00 00 00 00
 6.947712 2  3E0             Rx   d 8 00 00 00 00 00 00 13 C0
 6.954931 2  1E2             Rx   d 8 00 00 00 81 00 02 01 00
 6.971759 2  74B             Rx   d 1 05
 6.981309 2  75B             Rx   d 1 05
 7.001250 2  1E6             Rx   d 8 00 00 00 01 00 02 01 00
 7.010606 2  25E             Rx   d 8 00 00 02 80 00 00 00 00
 7.018796 2  3E4             Rx   d 8 00 00 00 00 00 00 13 C0
 7.022856 2  4E4             Rx   d 8 00 00 82 00 00 00 7E 00
 7.028907 2  4E5             Rx   d 8 00 00 00 00 00 00 00 00
 7.042613 2  76F             Rx   d 1 05
 7.046339 2  25A             Rx   d 8 00 00 02 00 00 00 00 00
 7.053646 2  756             Rx   d 1 05
 7.058686 2  762             Rx   d 1 05
 7.062874 2  1E4             Rx   d 8 00 00 00 00 01 00 00 00
 7.073894 2  1D6             Rx   d 8 00 00 00 01 00 02 01 00
 7.079803 2  4E0             Rx   d 8 00 00 82 00 00 00 7E 00
 7.087811 2  1E0             Rx   d 8 00 00 00 00 00 00 00 00
 7.092805 2  4E5             Rx   d 8 00 00 00 00 00 00 00 00
 7.098815 2  3E4             Rx   d 8 00 00 00 00 00 00 03 C0
 7.104772 2  4E8             Rx   d 8 00 00 82 00 00 00 7E 00
 7.108905 2  4E5             Rx   d 8 00 FF 00 00 00 00 00 00
 7.113989 2  76A             Rx   d 1 05
 7.117661 2  756             Rx   d 1 05
 7.122671 2  762             Rx   d 1 05
 7.126871 2  1E4             Rx   d 8 00 00 00 00 00 00 00 00
 7.132351 2  4E9             Rx   d 8 00 00 00 00 00 00 00 00
 7.149249 2  1E6             Rx   d 8 00 00 00 01 00 02 01 00
 7.155717 2  3E0             Rx   d 8 00 00 00 00 00 00 03 C0
 7.170629 2  76F             Rx   d 1 05
 7.174419 2  75F             Rx   d 1 05
 7.181658 2  756             Rx   d 1 05
 7.204878 2  4E5             Rx   d 8 00 00 00 00 00 00 00 00
 7.214892 2  4E4             Rx   d 8 00 00 82 00 00 00 7E 00
 7.219763 2  3E0             Rx   d 8 00 00 00 00 00 00 03 C0
 7.227778 2  74B             Rx   d 1 05
 7.237303 2  75B             Rx   d 1 05
 7.247130 2  26A             Rx   d 8 00 00 02 00 00 00 00 00
 7.260350 2  4E9             Rx   d 8 00 FF 00 00 00 00 00 00
 7.276384 2  4E9             Rx   d 8 00 00 00 00 00 00 00 00
 7.294937 2  4E4             Rx   d 8 00 00 82 00 00 00 7E 00
 7.309678 2  756             Rx   d 1 05
 7.315759 2  3E0             Rx   d 8 00 00 00 00 00 00 03 C0
 7.322260 2  26A             Rx   d 8 00 00 02 00 00 00 00 00
 7.327832 2  1E0             Rx   d 8 00 00 00 00 FF 00 00 00
 7.331752 2  3E0             Rx   d 8 00 00 00 00 00 00 13 C0
 7.339082 2  4E1             Rx   d 8 00 00 00 00 00 00 00 00
 7.350525 2  28B             Rx   d 6 CA 02 04 00 00 00
 7.356766 2  74F             Rx   d 1 05
 7.362572 2  76F             Rx   d 1 05
 7.369070 2  272             Rx   d 8 00 00 02 80 00 00 00 00
 7.380549 2  766             Rx   d 1 05
 7.398065 2  2D6             Rx   d 8 00 00 54 28 64 00 29 04
 7.402923 2  3E4             Rx   d 8 00 00 00 00 00 00 13 C0
 7.410623 2  25A             Rx   d 8 00 00 02 00 00 00 00 00
 7.415908 2  272             Rx   d 8 00 00 02 00 00 00 00 00
 7.423856 2  1E0             Rx   d 8 00 00 00 00 00 00 00 00
 7.430898 2  1E4             Rx   d 8 00 00 00 00 00 00 00 00
 7.437605 2  28C             Rx   d 6 F1 FC 03 00 00 00
 7.444567 2  766             Rx   d 1 05
 7.454146 2  26A             Rx   d 8 00 00 02 80 00 00 00 00
 7.470926 2  4E4             Rx   d 8 00 00 82 00 00 00 7E 00
 7.480812 2  1E8             Rx   d 8 00 00 00 00 01 00 00 00
 7.487243 2  262             Rx   d 8 00 00 02 00 00 00 00 00
 7.496826 2  1E8             Rx   d 8 00 00 00 00 01 00 00 00
 7.504759 2  4E8             Rx   d 8 00 00 82 00 00 00 7E 00
 7.511796 2  1DE             Rx   d 8 00 00 00 81 00 02 01 00
 7.524853 2  4E5             Rx   d 8 00 00 00 00 00 00 FF FF
 7.532372 2  4E9             Rx   d 8 00 00 00 00 00 00 FF FF
 7.542921 2  1E4             Rx   d 8 00 00 00 00 00 00 00 00
 7.548687 2  3E8             Rx   d 8 01 00 00 00 00 00 03 C0
 7.554577 2  76F             Rx   d 1 05
 7.564071 2  272             Rx   d 8 00 00 02 00 00 00 00 00
 7.572666 2  766             Rx   d 1 05
 7.583760 2  1DE             Rx   d 8 00 00 00 01 00 01 01 00
 7.594880 2  3E4             Rx   d 8 00 00 00 00 00 00 13 C0
 7.596637 2  25A             Rx   d 8 00 00 02 80 00 00 00 00
 7.603787 2  3E0             Rx   d 8 00 00 00 00 00 00 03 C0
 7.607904 2  4E0             Rx   d 8 00 00 82 00 00 00 7E 00
 7.612688 2  3E8             Rx   d 8 00 00 00 00 00 00 03 C0
 7.618550 2  76F             Rx   d 1 05
 7.623854 2  4E0             Rx   d 8 00 00 82 00 00 00 7E 00
 7.627648 2  75E             Rx   d 1 05
 7.632778 2  4E8             Rx   d 8 00 00 82 00 00 00 7E 00
 7.638095 2  26A             Rx   d 8 00 00 02 00 00 00 00 00
 7.642872 2  3E4             Rx   d 8 00 00 00 00 00 00 03 C0
 7.647038 2  4E4             Rx   d 8 00 00 82 00 00 00 7E 00
 7.652794 2  4E5             Rx   d 8 00 00 00 00 00 00 00 00
 7.658948 2  1CA             Rx   d 8 00 00 00 01 00 02 01 00
 7.667793 2  3E0             Rx   d 8 FD FF 00 00 00 00 03 C0
 7.670946 2  1E4             Rx   d 8 00 00 00 00 00 00 00 00
 7.675884 2  74F             Rx   d 1 05
 7.680593 2  763             Rx   d 1 05
 7.686280 2  75F             Rx   d 1 05
 7.690042 2  76A             Rx   d 1 05
 7.694943 2  4E4             Rx   d 8 00 00 82 00 00 00 7E 00
 7.699811 2  3E0             Rx   d 8 00 00 00 00 00 00 03 C0
 7.705794 2  25A             Rx   d 8 00 00 02 00 00 00 00 00
 7.712840 2  4E8             Rx   d 8 00 00 82 00 00 00 7E 00
 7.718947 2  1E4             Rx   d 8 00 00 00 00 01 00 00 00
 7.722879 2  3E4             Rx   d 8 00 00 00 00 00 00 13 C0
 7.724701 2  3E8             Rx   d 8 00 00 00 00 00 00 13 C0
 7.731939 2  1DE             Rx   d 8 00 00 00 01 00 01 01 00
 7.738031 2  773             Rx   d 1 05
 7.741908 2  76B             Rx   d 1 05
 7.747248 2  272             Rx   d 8 00 00 02 80 00 00 00 00
 7.751879 2  4E0             Rx   d 8 00 00 82 00 00 00 7E 00
 7.756324 2  4E9             Rx   d 8 00 FF 00 00 00 00 00 00
 7.762731 2  762             Rx   d 1 05
 7.766938 2  1E4             Rx   d 8 00 00 00 00 00 00 00 00
 7.770886 2  3E4             Rx   d 8 00 00 00 00 00 00 03 C0
 7.775004 2  4E4             Rx   d 8 00 00 82 00 00 00 7E 00
 7.782938 2  1E4             Rx   d 8 00 00 00 00 01 00 00 00
 7.788300 2  4E9             Rx   d 8 00 00 00 00 00 00 00 00
 7.796639 2  28A             Rx   d 6 25 FD 03 00 00 00
 7.807007 2  4E4             Rx   d 8 00 00 82 00 00 00 7E 00
 7.816874 2  1E8             Rx   d 8 00 00 00 00 00 00 00 00
 7.828943 2  75A             Rx   d 1 05
 7.842312 2  28F             Rx   d 6 FE FF 03 00 00 00
 7.856140 2  26E             Rx   d 8 00 00 02 80 00 00 00 00
 7.859831 2  3E0             Rx   d 8 00 00 00 00 00 00 03 C0
 7.874561 2  76F             Rx   d 1 05
 7.895945 2  4E0             Rx   d 8 00 00 82 00 00 00 7E 00
 7.898435 2  25A             Rx   d 8 00 00 02 00 00 00 00 00
 7.907827 2  3E0             Rx   d 8 00 00 00 00 00 00 13 C0
 7.910970 2  1E4             Rx   d 8 00 00 00 00 00 00 00 00
 7.914962 2  3E4             Rx   d 8 00 00 00 00 00 00 13 C0
 7.938924 2  28D             Rx   d 6 E8 02 04 00 00 00
 7.947471 2  4E1             Rx   d 8 00 00 00 00 00 00 00 00
 7.954773 2  762             Rx   d 1 05
 7.955823 2  3E0             Rx   d 8 00 00 00 00 00 00 03 C0
 7.958976 2  1E4             Rx   d 8 00 00 00 00 01 00 00 00
 7.960808 2  1E8             Rx   d 8 00 00 00 00 00 00 00 00
 7.981773 2  290             Rx   d 6 13 00 04 00 00 00
 7.984810 2  4E8             Rx   d 8 00 00 82 00 00 00 7E 00
 7.987826 2  3E0             Rx   d 8 FD FF 00 00 00 00 03 C0
 7.999022 2  4E4             Rx   d 8 00 00 82 00 00 00 7E 00
 8.000564 2  763             Rx   d 1 05
 8.011680 2  75E             Rx   d 1 05
 8.014595 2  76E             Rx   d 1 05
 8.019850 2  3E0             Rx   d 8 05 00 00 00 00 00 03 C0
 8.026690 2  70D             Rx   d 1 05
 8.035919 2  3E0             Rx   d 8 00 00 00 00 00 00 13 C0
 8.040826 2  1E8             Rx   d 8 00 00 00 00 00 00 00 00
 8.044551 2  2D2             Rx   d 8 00 00 57 28 63 00 29 04
 8.047624 2  4E9             Rx   d 8 00 00 00 00 00 00 00 00
 8.052731 2  4E5             Rx   d 8 00 00 00 00 00 00 FF FF
 8.061337 2  757             Rx   d 1 05
 8.063704 2  710             Rx   d 1 05
 8.066572 2  76F             Rx   d 1 05
 8.068865 2  4E5             Rx   d 8 00 00 00 00 00 00 00 00
 8.083820 2  1DE             Rx   d 8 00 00 00 81 00 02 01 00
 8.092750 2  3E8             Rx   d 8 00 00 00 00 00 00 03 C0
 8.095924 2  1E0             Rx   d 8 00 00 00 00 FF 00 00 00
 8.098263 2  24A             Rx   d 8 00 00 0B 00 00 00 00 00
 8.100747 2  4E5             Rx   d 8 00 FF 00 00 00 00 00 00
 8.102976 2  1E4             Rx   d 8 00 00 00 00 01 00 00 00
 8.106937 2  3E4             Rx   d 8 00 00 00 00 00 00 13 C0
 8.108344 2  4E9             Rx   d 8 00 00 00 00 01 00 00 00
 8.111001 2  4E4             Rx   d 8 00 00 82 00 00 00 7E 00
 8.111918 2  1E0             Rx   d 8 00 00 00 00 FF 01 00 00
 8.115837 2  3E0             Rx   d 8 00 00 00 00 00 00 03 C0
 8.123711 2  80              Rx   d 0 
 8.127052 2  1E2             Rx   d 8 00 00 00 81 00 02 01 00
 8.132992 2  4E5             Rx   d 8 00 FF 00 00 00 00 00 00
 8.134990 2  1E4             Rx   d 8 00 00 00 00 00 00 00 00
 8.137857 2  25E             Rx   d 8 00 00 02 80 00 00 00 00
 8.140434 2  4E9             Rx   d 8 00 00 00 00 00 00 00 00
 8.142864 2  272             Rx   d 8 00 00 02 80 00 00 00 00
 8.146784 2  762             Rx   d 1 05
 8.152826 2  1E8             Rx   d 8 00 00 00 00 01 00 00 00
 8.154987 2  3E4             Rx   d 8 00 00 00 00 00 00 03 C0
 8.159050 2  4E4             Rx   d 8 00 00 82 00 00 00 7E 00
 8.179874 2  3E0             Rx   d 8 00 00 00 00 00 00 03 C0
 8.182999 2  1E4             Rx   d 8 00 00 00 00 01 00 00 00
 8.183972 2  4E0             Rx   d 8 00 00 82 00 00 00 7E 00
 8.185443 2  25A             Rx   d 8 00 00 02 00 00 00 00 00
 8.188223 2  256             Rx   d 8 00 00 13 00 00 00 00 00
 8.191036 2  4E4             Rx   d 8 00 00 82 00 00 00 7E 00
 8.194504 2  76F             Rx   d 1 05
 8.198314 2  75F             Rx   d 1 05
 8.200663 2  74E             Rx   d 1 05
 8.202660 2  74A             Rx   d 1 05
 8.204754 2  3E8             Rx   d 8 FE FF 00 00 00 00 13 C0
 8.206993 2  4E4             Rx   d 8 00 00 82 00 00 00 7E 00
 8.221082 2  1CE             Rx   d 8 00 00 00 01 00 02 01 00
 8.224036 2  1E0             Rx   d 8 00 00 00 00 FF 00 00 00
 8.227856 2  3E0             Rx   d 8 00 00 00 00 00 00 13 C0
 8.228984 2  4E5             Rx   d 8 00 FE 00 00 00 00 00 00
 8.231014 2  1E4             Rx   d 8 00 00 00 00 00 00 00 00
 8.233073 2  262             Rx   d 8 00 00 02 80 00 00 00 00
 8.237664 2  276             Rx   d 8 00 00 02 80 00 00 00 00
 8.240845 2  4E8             Rx   d 8 00 00 82 00 00 00 7E 00
 8.243859 2  3E0             Rx   d 8 00 00 00 00 00 00 03 C0
 8.244753 2  4E5             Rx   d 8 00 FE 00 00 00 00 FF FF
 8.247010 2  1E4             Rx   d 8 00 00 00 00 01 00 00 00
 8.248838 2  1E8             Rx   d 8 00 00 00 00 00 00 00 00
 8.251547 2  74F             Rx   d 1 05
 8.255073 2  4E4             Rx   d 8 00 00 82 00 00 00 7E 00
 8.256523 2  763             Rx   d 1 05
 8.259873 2  3E0             Rx   d 8 00 00 00 00 00 00 13 C0
 8.261129 2  75B             Rx   d 1 05
 8.263921 2  4E0             Rx   d 8 00 00 82 00 00 00 7E 00
 8.266106 2  76A             Rx   d 1 05
 8.268267 2  262             Rx   d 8 00 00 02 00 00 00 00 00
 8.271458 2  752             Rx   d 1 05
 8.284341 2  4E9             Rx   d 8 00 FF 00 00 00 00 00 00
 8.302994 2  4E4             Rx   d 8 00 00 82 00 00 00 7E 00
 8.307665 2  266             Rx   d 8 00 00 02 80 00 00 00 00
 8.313989 2  773             Rx   d 1 05
 8.315548 2  74F             Rx   d 1 05
 8.317824 2  76B             Rx   d 1 05
 8.319950 2  1E0             Rx   d 8 00 00 00 00 00 00 00 00
 8.322459 2  76F             Rx   d 1 05
 8.324749 2  4E5             Rx   d 8 00 00 00 00 00 00 00 00
 8.328098 2  767             Rx   d 1 05
 8.330670 2  74A             Rx   d 1 05
 8.340960 2  75A             Rx   d 1 05
 8.343550 2  1EE             Rx   d 8 00 00 00 60 00 00 00 00
 8.346299 2  1D6             Rx   d 8 00 00 00 01 00 02 01 00
 8.351063 2  4E4             Rx   d 8 00 00 82 00 00 00 7E 00
 8.351950 2  1E0             Rx   d 8 00 00 00 00 00 01 00 00
 8.355421 2  25A             Rx   d 8 00 00 02 00 00 00 00 00
 8.356031 2  3E0             Rx   d 8 02 00 00 00 00 00 13 C0
 8.359030 2  1E4             Rx   d 8 00 00 00 00 01 00 00 00
 8.362952 2  3E4             Rx   d 8 00 00 00 00 00 00 13 C0
 8.364330 2  4E9             Rx   d 8 00 FF 00 00 01 00 00 00
 8.367025 2  4E4             Rx   d 8 00 00 82 00 00 00 7E 00
 8.367952 2  1E0             Rx   d 8 00 00 00 00 00 00 00 00
 8.376852 2  1E8             Rx   d 8 00 00 00 00 00 00 00 00
 8.378955 2  3E4             Rx   d 8 00 00 00 00 00 00 03 C0
 8.381383 2  753             Rx   d 1 05
 8.383072 2  4E4             Rx   d 8 00 00 82 00 00 00 7E 00
 8.386486 2  76F             Rx   d 1 05
 8.388867 2  4E5             Rx   d 8 00 00 00 00 00 00 00 00
 8.390239 2  75F             Rx   d 1 05
 8.392423 2  266             Rx   d 8 00 00 02 80 00 00 00 00
 8.395609 2  26A             Rx   d 8 00 00 02 80 00 00 00 00
 8.398642 2  76E             Rx   d 1 05
 8.400854 2  4E8             Rx   d 8 00 00 82 00 00 00 7E 00
 8.402817 2  762             Rx   d 1 05
 8.404779 2  4E5             Rx   d 8 00 00 00 00 00 00 00 00
 8.407026 2  1E4             Rx   d 8 00 00 00 00 00 00 00 00
 8.410971 2  3E4             Rx   d 8 00 00 00 00 00 00 03 C0
 8.411263 2  4E1             Rx   d 8 00 00 00 00 00 00 FF FF
 8.426950 2  4E1             Rx   d 8 00 00 00 00 00 00 FF FF
 8.431042 2  4E4             Rx   d 8 00 00 82 00 00 00 7E 00
 8.431962 2  1E0             Rx   d 8 00 00 00 00 00 00 00 00
 8.434222 2  25E             Rx   d 8 00 00 02 00 00 00 00 00
 8.436777 2  4E5             Rx   d 8 00 00 00 00 00 00 00 00
 8.438868 2  272             Rx   d 8 00 00 02 00 00 00 00 00
 8.440862 2  1E8             Rx   d 8 00 00 00 00 01 00 00 00
 8.443551 2  74F             Rx   d 1 05
 8.447079 2  4E4             Rx   d 8 00 00 82 00 00 00 7E 00
 8.450493 2  76F             Rx   d 1 05
 8.451881 2  3E0             Rx   d 8 00 00 00 00 00 00 13 C0
 8.454264 2  75F             Rx   d 1 05
 8.456697 2  74E             Rx   d 1 05
 8.458689 2  74A             Rx   d 1 05
 8.461848 2  756             Rx   d 1 05
 8.463950 2  1E0             Rx   d 8 00 00 00 00 FF 00 00 00
 8.466841 2  762             Rx   d 1 05
 8.467892 2  3E0             Rx   d 8 00 00 00 00 00 00 03 C0
 8.470549 2  262             Rx   d 8 00 00 02 80 00 00 00 00
 8.474314 2  26A             Rx   d 8 00 00 02 80 00 00 00 00
 8.476382 2  4E9             Rx   d 8 00 00 00 00 00 00 00 00
 8.479082 2  4E4             Rx   d 8 00 00 82 00 00 00 7E 00
 8.480918 2  4E8             Rx   d 8 00 00 82 00 00 00 7E 00
 8.493029 2  1CE             Rx   d 8 00 00 00 01 00 02 01 00
 8.499918 2  3E0             Rx   d 8 00 00 00 00 00 00 03 C0
 8.503040 2  1E4             Rx   d 8 00 00 00 00 01 00 00 00
 8.503999 2  4E0             Rx   d 8 00 00 82 00 00 00 7E 00
 8.507499 2  24A             Rx   d 8 00 00 0B 00 00 00 00 00
 8.510418 2  26A             Rx   d 8 00 00 02 00 00 00 00 00
 8.512905 2  4E8             Rx   d 8 00 00 82 00 00 00 7E 00
 8.515893 2  3E0             Rx   d 8 02 00 00 00 00 00 13 C0
 8.518260 2  75F             Rx   d 1 05
 8.519970 2  4E0             Rx   d 8 00 00 82 00 00 00 7E 00
 8.522073 2  70B             Rx   d 1 05
 8.531892 2  3E0             Rx   d 8 00 00 00 00 00 00 03 C0
 8.535061 2  1E4             Rx   d 8 00 00 00 00 00 00 00 00
 8.536014 2  4E0             Rx   d 8 00 00 82 00 00 00 7E 00
 8.539134 2  4E1             Rx   d 8 00 00 00 00 00 00 FF FF
 8.543064 2  4E4             Rx   d 8 00 00 82 00 00 00 7E 00
 8.545403 2  25A             Rx   d 8 00 00 02 80 00 00 00 00
 8.547585 2  252             Rx   d 8 00 00 0B 80 00 00 00 00
 8.549739 2  26A             Rx   d 8 00 00 02 80 00 00 00 00
 8.552890 2  1E8             Rx   d 8 00 00 00 00 00 00 00 00
 8.554982 2  4E1             Rx   d 8 00 00 00 00 00 00 00 00
 8.556809 2  3E8             Rx   d 8 FF FF 00 00 01 00 11 C0
 8.559048 2  4E4             Rx   d 8 00 00 82 00 00 00 7E 00
 8.560889 2  4E8             Rx   d 8 00 00 82 00 00 00 7E 00
 8.564045 2  3E0             Rx   d 8 00 00 00 00 00 00 03 C0
 8.567032 2  1E4             Rx   d 8 00 00 00 00 00 00 00 00
 8.568071 2  4E0             Rx   d 8 00 00 82 00 00 00 7E 00
 8.570892 2  4E1             Rx   d 8 00 00 00 00 00 00 00 00
 8.584722 2  74E             Rx   d 1 05
 8.586941 2  4E1             Rx   d 8 00 00 00 00 00 00 FF FF
 8.589830 2  756             Rx   d 1 05
 8.594857 2  762             Rx   d 1 05
 8.596682 2  4E5             Rx   d 8 00 FF 00 00 00 00 00 00
 8.599028 2  1E4             Rx   d 8 00 00 00 00 00 00 00 00
 8.602956 2  4E1             Rx   d 8 00 00 00 00 00 00 FF FF
 8.604371 2  4E9             Rx   d 8 00 00 00 00 00 00 00 00
 8.607103 2  4E4             Rx   d 8 00 00 82 00 00 00 7E 00
 8.607981 2  1E0             Rx   d 8 00 00 00 00 00 00 00 00
 8.611958 2  3E0             Rx   d 8 00 00 00 00 00 00 13 C0
 8.612710 2  4E5             Rx   d 8 00 FF 00 00 00 00 00 00
 8.615064 2  1E4             Rx   d 8 00 00 00 00 01 00 00 00
 8.616871 2  1E8             Rx   d 8 00 00 00 00 01 00 00 00
 8.619002 2  4E1             Rx   d 8 00 00 00 00 00 00 00 00
 8.623052 2  4E4             Rx   d 8 00 00 82 00 00 00 7E 00
 8.623994 2  1E0             Rx   d 8 00 00 00 00 00 00 00 00
 8.625274 2  777             Rx   d 1 05
 8.627907 2  3E0             Rx   d 8 00 00 00 00 00 00 03 C0
 8.631046 2  1E4             Rx   d 8 00 00 00 00 00 00 00 00
 8.636807 2  3E8             Rx   d 8 FE FF 00 00 00 00 03 C0
 8.649989 2  1D6             Rx   d 8 05 00 00 01 00 02 01 00
 8.654238 2  3E4             Rx   d 8 00 00 00 00 00 00 13 C0
